!	Parâmetros S - Tag_ID_3 
#	Hz	S	MA	R	50 
!	Freq	magS11	angS11	magS21	angS21	magS12	angS12	magS22	angS22
78000000.0	0	0	0.1874724179506302	0	0	0	0	0
79000000.0	0	0	0.1874724179506302	0	0	0	0	0
80000000.0	0	0	0.18805626034736633	0	0	0	0	0
81000000.0	0	0	0.18805626034736633	0	0	0	0	0
82000000.0	0	0	0.18789848685264587	0	0	0	0	0
83000000.0	0	0	0.18789848685264587	0	0	0	0	0
84000000.0	0	0	0.18978190422058105	0	0	0	0	0
85000000.0	0	0	0.18978190422058105	0	0	0	0	0
86000000.0	0	0	0.1884053647518158	0	0	0	0	0
87000000.0	0	0	0.1884053647518158	0	0	0	0	0
88000000.0	0	0	0.187582865357399	0	0	0	0	0
89000000.0	0	0	0.187582865357399	0	0	0	0	0
90000000.0	0	0	0.18747080862522125	0	0	0	0	0
91000000.0	0	0	0.18747080862522125	0	0	0	0	0
92000000.0	0	0	0.18704825639724731	0	0	0	0	0
93000000.0	0	0	0.18704825639724731	0	0	0	0	0
94000000.0	0	0	0.18821582198143005	0	0	0	0	0
95000000.0	0	0	0.18821582198143005	0	0	0	0	0
96000000.0	0	0	0.19095778465270996	0	0	0	0	0
97000000.0	0	0	0.19095778465270996	0	0	0	0	0
98000000.0	0	0	0.19604162871837616	0	0	0	0	0
99000000.0	0	0	0.19604162871837616	0	0	0	0	0
100000000.0	0	0	0.1995878517627716	0	0	0	0	0
101000000.0	0	0	0.1995878517627716	0	0	0	0	0
102000000.0	0	0	0.20345397293567657	0	0	0	0	0
103000000.0	0	0	0.20345397293567657	0	0	0	0	0
104000000.0	0	0	0.20726734399795532	0	0	0	0	0
105000000.0	0	0	0.20726734399795532	0	0	0	0	0
106000000.0	0	0	0.21227248013019562	0	0	0	0	0
107000000.0	0	0	0.21227248013019562	0	0	0	0	0
108000000.0	0	0	0.21548710763454437	0	0	0	0	0
109000000.0	0	0	0.21548710763454437	0	0	0	0	0
110000000.0	0	0	0.2198222279548645	0	0	0	0	0
111000000.0	0	0	0.2198222279548645	0	0	0	0	0
112000000.0	0	0	0.22472739219665527	0	0	0	0	0
113000000.0	0	0	0.22472739219665527	0	0	0	0	0
114000000.0	0	0	0.2287234663963318	0	0	0	0	0
115000000.0	0	0	0.2287234663963318	0	0	0	0	0
116000000.0	0	0	0.23525196313858032	0	0	0	0	0
117000000.0	0	0	0.23525196313858032	0	0	0	0	0
118000000.0	0	0	0.24054653942584991	0	0	0	0	0
119000000.0	0	0	0.24054653942584991	0	0	0	0	0
120000000.0	0	0	0.2445637285709381	0	0	0	0	0
121000000.0	0	0	0.2445637285709381	0	0	0	0	0
122000000.0	0	0	0.24440112709999084	0	0	0	0	0
123000000.0	0	0	0.24440112709999084	0	0	0	0	0
124000000.0	0	0	0.2481570988893509	0	0	0	0	0
125000000.0	0	0	0.2481570988893509	0	0	0	0	0
126000000.0	0	0	0.2523921728134155	0	0	0	0	0
127000000.0	0	0	0.2523921728134155	0	0	0	0	0
128000000.0	0	0	0.25686854124069214	0	0	0	0	0
129000000.0	0	0	0.25686854124069214	0	0	0	0	0
130000000.0	0	0	0.2609166204929352	0	0	0	0	0
131000000.0	0	0	0.2609166204929352	0	0	0	0	0
132000000.0	0	0	0.26596349477767944	0	0	0	0	0
133000000.0	0	0	0.26596349477767944	0	0	0	0	0
134000000.0	0	0	0.2699378430843353	0	0	0	0	0
135000000.0	0	0	0.2699378430843353	0	0	0	0	0
136000000.0	0	0	0.2757933437824249	0	0	0	0	0
137000000.0	0	0	0.2757933437824249	0	0	0	0	0
138000000.0	0	0	0.28062164783477783	0	0	0	0	0
139000000.0	0	0	0.28062164783477783	0	0	0	0	0
140000000.0	0	0	0.2875354290008545	0	0	0	0	0
141000000.0	0	0	0.2875354290008545	0	0	0	0	0
142000000.0	0	0	0.28830790519714355	0	0	0	0	0
143000000.0	0	0	0.28830790519714355	0	0	0	0	0
144000000.0	0	0	0.2915467917919159	0	0	0	0	0
145000000.0	0	0	0.2915467917919159	0	0	0	0	0
146000000.0	0	0	0.29830026626586914	0	0	0	0	0
147000000.0	0	0	0.29830026626586914	0	0	0	0	0
148000000.0	0	0	0.3011803925037384	0	0	0	0	0
149000000.0	0	0	0.3011803925037384	0	0	0	0	0
150000000.0	0	0	0.30597928166389465	0	0	0	0	0
151000000.0	0	0	0.30597928166389465	0	0	0	0	0
152000000.0	0	0	0.3074198067188263	0	0	0	0	0
153000000.0	0	0	0.3074198067188263	0	0	0	0	0
154000000.0	0	0	0.30779018998146057	0	0	0	0	0
155000000.0	0	0	0.30779018998146057	0	0	0	0	0
156000000.0	0	0	0.3081516623497009	0	0	0	0	0
157000000.0	0	0	0.3081516623497009	0	0	0	0	0
158000000.0	0	0	0.3080083727836609	0	0	0	0	0
159000000.0	0	0	0.3080083727836609	0	0	0	0	0
160000000.0	0	0	0.31007182598114014	0	0	0	0	0
161000000.0	0	0	0.31007182598114014	0	0	0	0	0
162000000.0	0	0	0.31042027473449707	0	0	0	0	0
163000000.0	0	0	0.31042027473449707	0	0	0	0	0
164000000.0	0	0	0.3114241361618042	0	0	0	0	0
165000000.0	0	0	0.3114241361618042	0	0	0	0	0
166000000.0	0	0	0.3083069920539856	0	0	0	0	0
167000000.0	0	0	0.3083069920539856	0	0	0	0	0
168000000.0	0	0	0.30833899974823	0	0	0	0	0
169000000.0	0	0	0.30833899974823	0	0	0	0	0
170000000.0	0	0	0.3056648373603821	0	0	0	0	0
171000000.0	0	0	0.3056648373603821	0	0	0	0	0
172000000.0	0	0	0.30368247628211975	0	0	0	0	0
173000000.0	0	0	0.30368247628211975	0	0	0	0	0
174000000.0	0	0	0.30068686604499817	0	0	0	0	0
175000000.0	0	0	0.30068686604499817	0	0	0	0	0
176000000.0	0	0	0.29915037751197815	0	0	0	0	0
177000000.0	0	0	0.29915037751197815	0	0	0	0	0
178000000.0	0	0	0.30002695322036743	0	0	0	0	0
179000000.0	0	0	0.30002695322036743	0	0	0	0	0
180000000.0	0	0	0.30133530497550964	0	0	0	0	0
181000000.0	0	0	0.30133530497550964	0	0	0	0	0
182000000.0	0	0	0.2989898920059204	0	0	0	0	0
183000000.0	0	0	0.2989898920059204	0	0	0	0	0
184000000.0	0	0	0.29903334379196167	0	0	0	0	0
185000000.0	0	0	0.29903334379196167	0	0	0	0	0
186000000.0	0	0	0.30042383074760437	0	0	0	0	0
187000000.0	0	0	0.30042383074760437	0	0	0	0	0
188000000.0	0	0	0.30079740285873413	0	0	0	0	0
189000000.0	0	0	0.30079740285873413	0	0	0	0	0
190000000.0	0	0	0.3025133013725281	0	0	0	0	0
191000000.0	0	0	0.3025133013725281	0	0	0	0	0
192000000.0	0	0	0.30218935012817383	0	0	0	0	0
193000000.0	0	0	0.30218935012817383	0	0	0	0	0
194000000.0	0	0	0.3029894530773163	0	0	0	0	0
195000000.0	0	0	0.3029894530773163	0	0	0	0	0
196000000.0	0	0	0.3070296347141266	0	0	0	0	0
197000000.0	0	0	0.3070296347141266	0	0	0	0	0
198000000.0	0	0	0.3076929748058319	0	0	0	0	0
199000000.0	0	0	0.3076929748058319	0	0	0	0	0
200000000.0	0	0	0.3122921884059906	0	0	0	0	0
201000000.0	0	0	0.3122921884059906	0	0	0	0	0
202000000.0	0	0	0.31427615880966187	0	0	0	0	0
203000000.0	0	0	0.31427615880966187	0	0	0	0	0
204000000.0	0	0	0.3147100806236267	0	0	0	0	0
205000000.0	0	0	0.3147100806236267	0	0	0	0	0
206000000.0	0	0	0.3141607642173767	0	0	0	0	0
207000000.0	0	0	0.3141607642173767	0	0	0	0	0
208000000.0	0	0	0.31586316227912903	0	0	0	0	0
209000000.0	0	0	0.31586316227912903	0	0	0	0	0
210000000.0	0	0	0.31442615389823914	0	0	0	0	0
211000000.0	0	0	0.31442615389823914	0	0	0	0	0
212000000.0	0	0	0.3126696050167084	0	0	0	0	0
213000000.0	0	0	0.3126696050167084	0	0	0	0	0
214000000.0	0	0	0.3130716383457184	0	0	0	0	0
215000000.0	0	0	0.3130716383457184	0	0	0	0	0
216000000.0	0	0	0.3163643777370453	0	0	0	0	0
217000000.0	0	0	0.3163643777370453	0	0	0	0	0
218000000.0	0	0	0.31706589460372925	0	0	0	0	0
219000000.0	0	0	0.31706589460372925	0	0	0	0	0
220000000.0	0	0	0.3172896206378937	0	0	0	0	0
221000000.0	0	0	0.3172896206378937	0	0	0	0	0
222000000.0	0	0	0.3161934018135071	0	0	0	0	0
223000000.0	0	0	0.3161934018135071	0	0	0	0	0
224000000.0	0	0	0.3148738443851471	0	0	0	0	0
225000000.0	0	0	0.3148738443851471	0	0	0	0	0
226000000.0	0	0	0.3163716197013855	0	0	0	0	0
227000000.0	0	0	0.3163716197013855	0	0	0	0	0
228000000.0	0	0	0.31688591837882996	0	0	0	0	0
229000000.0	0	0	0.31688591837882996	0	0	0	0	0
230000000.0	0	0	0.3172287940979004	0	0	0	0	0
231000000.0	0	0	0.3172287940979004	0	0	0	0	0
232000000.0	0	0	0.3169015645980835	0	0	0	0	0
233000000.0	0	0	0.3169015645980835	0	0	0	0	0
234000000.0	0	0	0.31956133246421814	0	0	0	0	0
235000000.0	0	0	0.31956133246421814	0	0	0	0	0
236000000.0	0	0	0.32190605998039246	0	0	0	0	0
237000000.0	0	0	0.32190605998039246	0	0	0	0	0
238000000.0	0	0	0.3238964080810547	0	0	0	0	0
239000000.0	0	0	0.3238964080810547	0	0	0	0	0
240000000.0	0	0	0.3239326477050781	0	0	0	0	0
241000000.0	0	0	0.3239326477050781	0	0	0	0	0
242000000.0	0	0	0.3267248272895813	0	0	0	0	0
243000000.0	0	0	0.3267248272895813	0	0	0	0	0
244000000.0	0	0	0.3275810182094574	0	0	0	0	0
245000000.0	0	0	0.3275810182094574	0	0	0	0	0
246000000.0	0	0	0.32914674282073975	0	0	0	0	0
247000000.0	0	0	0.32914674282073975	0	0	0	0	0
248000000.0	0	0	0.3319481909275055	0	0	0	0	0
249000000.0	0	0	0.3319481909275055	0	0	0	0	0
250000000.0	0	0	0.33470773696899414	0	0	0	0	0
251000000.0	0	0	0.33470773696899414	0	0	0	0	0
252000000.0	0	0	0.33491095900535583	0	0	0	0	0
253000000.0	0	0	0.33491095900535583	0	0	0	0	0
254000000.0	0	0	0.3364969491958618	0	0	0	0	0
255000000.0	0	0	0.3364969491958618	0	0	0	0	0
256000000.0	0	0	0.3368555009365082	0	0	0	0	0
257000000.0	0	0	0.3368555009365082	0	0	0	0	0
258000000.0	0	0	0.33861324191093445	0	0	0	0	0
259000000.0	0	0	0.33861324191093445	0	0	0	0	0
260000000.0	0	0	0.34067827463150024	0	0	0	0	0
261000000.0	0	0	0.34067827463150024	0	0	0	0	0
262000000.0	0	0	0.3392747640609741	0	0	0	0	0
263000000.0	0	0	0.3392747640609741	0	0	0	0	0
264000000.0	0	0	0.3416025936603546	0	0	0	0	0
265000000.0	0	0	0.3416025936603546	0	0	0	0	0
266000000.0	0	0	0.3411141633987427	0	0	0	0	0
267000000.0	0	0	0.3411141633987427	0	0	0	0	0
268000000.0	0	0	0.341482013463974	0	0	0	0	0
269000000.0	0	0	0.341482013463974	0	0	0	0	0
270000000.0	0	0	0.3415258824825287	0	0	0	0	0
271000000.0	0	0	0.3415258824825287	0	0	0	0	0
272000000.0	0	0	0.34222349524497986	0	0	0	0	0
273000000.0	0	0	0.34222349524497986	0	0	0	0	0
274000000.0	0	0	0.339367538690567	0	0	0	0	0
275000000.0	0	0	0.339367538690567	0	0	0	0	0
276000000.0	0	0	0.3346883952617645	0	0	0	0	0
277000000.0	0	0	0.3346883952617645	0	0	0	0	0
278000000.0	0	0	0.3366687297821045	0	0	0	0	0
279000000.0	0	0	0.3366687297821045	0	0	0	0	0
280000000.0	0	0	0.33842733502388	0	0	0	0	0
281000000.0	0	0	0.33842733502388	0	0	0	0	0
282000000.0	0	0	0.3402177393436432	0	0	0	0	0
283000000.0	0	0	0.3402177393436432	0	0	0	0	0
284000000.0	0	0	0.3417266309261322	0	0	0	0	0
285000000.0	0	0	0.3417266309261322	0	0	0	0	0
286000000.0	0	0	0.3398666977882385	0	0	0	0	0
287000000.0	0	0	0.3398666977882385	0	0	0	0	0
288000000.0	0	0	0.3423622250556946	0	0	0	0	0
289000000.0	0	0	0.3423622250556946	0	0	0	0	0
290000000.0	0	0	0.34247490763664246	0	0	0	0	0
291000000.0	0	0	0.34247490763664246	0	0	0	0	0
292000000.0	0	0	0.3424287438392639	0	0	0	0	0
293000000.0	0	0	0.3424287438392639	0	0	0	0	0
294000000.0	0	0	0.345212459564209	0	0	0	0	0
295000000.0	0	0	0.345212459564209	0	0	0	0	0
296000000.0	0	0	0.34558847546577454	0	0	0	0	0
297000000.0	0	0	0.34558847546577454	0	0	0	0	0
298000000.0	0	0	0.3449045717716217	0	0	0	0	0
299000000.0	0	0	0.3449045717716217	0	0	0	0	0
300000000.0	0	0	0.3498018682003021	0	0	0	0	0
301000000.0	0	0	0.3498018682003021	0	0	0	0	0
302000000.0	0	0	0.3528420627117157	0	0	0	0	0
303000000.0	0	0	0.3528420627117157	0	0	0	0	0
304000000.0	0	0	0.3534170687198639	0	0	0	0	0
305000000.0	0	0	0.3534170687198639	0	0	0	0	0
306000000.0	0	0	0.35500526428222656	0	0	0	0	0
307000000.0	0	0	0.35500526428222656	0	0	0	0	0
308000000.0	0	0	0.3561456799507141	0	0	0	0	0
309000000.0	0	0	0.3561456799507141	0	0	0	0	0
310000000.0	0	0	0.35450831055641174	0	0	0	0	0
311000000.0	0	0	0.35450831055641174	0	0	0	0	0
312000000.0	0	0	0.35778316855430603	0	0	0	0	0
313000000.0	0	0	0.35778316855430603	0	0	0	0	0
314000000.0	0	0	0.3570786118507385	0	0	0	0	0
315000000.0	0	0	0.3570786118507385	0	0	0	0	0
316000000.0	0	0	0.3618161380290985	0	0	0	0	0
317000000.0	0	0	0.3618161380290985	0	0	0	0	0
318000000.0	0	0	0.3637492060661316	0	0	0	0	0
319000000.0	0	0	0.3637492060661316	0	0	0	0	0
320000000.0	0	0	0.3644847571849823	0	0	0	0	0
321000000.0	0	0	0.3644847571849823	0	0	0	0	0
322000000.0	0	0	0.36534175276756287	0	0	0	0	0
323000000.0	0	0	0.36534175276756287	0	0	0	0	0
324000000.0	0	0	0.3699216842651367	0	0	0	0	0
325000000.0	0	0	0.3699216842651367	0	0	0	0	0
326000000.0	0	0	0.37244048714637756	0	0	0	0	0
327000000.0	0	0	0.37244048714637756	0	0	0	0	0
328000000.0	0	0	0.37144532799720764	0	0	0	0	0
329000000.0	0	0	0.37144532799720764	0	0	0	0	0
330000000.0	0	0	0.3713679909706116	0	0	0	0	0
331000000.0	0	0	0.3713679909706116	0	0	0	0	0
332000000.0	0	0	0.36939799785614014	0	0	0	0	0
333000000.0	0	0	0.36939799785614014	0	0	0	0	0
334000000.0	0	0	0.3653842508792877	0	0	0	0	0
335000000.0	0	0	0.3653842508792877	0	0	0	0	0
336000000.0	0	0	0.3662413954734802	0	0	0	0	0
337000000.0	0	0	0.3662413954734802	0	0	0	0	0
338000000.0	0	0	0.36776793003082275	0	0	0	0	0
339000000.0	0	0	0.36776793003082275	0	0	0	0	0
340000000.0	0	0	0.37106695771217346	0	0	0	0	0
341000000.0	0	0	0.37106695771217346	0	0	0	0	0
342000000.0	0	0	0.36801350116729736	0	0	0	0	0
343000000.0	0	0	0.36801350116729736	0	0	0	0	0
344000000.0	0	0	0.36928635835647583	0	0	0	0	0
345000000.0	0	0	0.36928635835647583	0	0	0	0	0
346000000.0	0	0	0.36593160033226013	0	0	0	0	0
347000000.0	0	0	0.36593160033226013	0	0	0	0	0
348000000.0	0	0	0.366953045129776	0	0	0	0	0
349000000.0	0	0	0.366953045129776	0	0	0	0	0
350000000.0	0	0	0.3646043539047241	0	0	0	0	0
351000000.0	0	0	0.3646043539047241	0	0	0	0	0
352000000.0	0	0	0.36518949270248413	0	0	0	0	0
353000000.0	0	0	0.36518949270248413	0	0	0	0	0
354000000.0	0	0	0.3616570234298706	0	0	0	0	0
355000000.0	0	0	0.3616570234298706	0	0	0	0	0
356000000.0	0	0	0.3652685582637787	0	0	0	0	0
357000000.0	0	0	0.3652685582637787	0	0	0	0	0
358000000.0	0	0	0.3669162392616272	0	0	0	0	0
359000000.0	0	0	0.3669162392616272	0	0	0	0	0
360000000.0	0	0	0.37315818667411804	0	0	0	0	0
361000000.0	0	0	0.37315818667411804	0	0	0	0	0
362000000.0	0	0	0.37637802958488464	0	0	0	0	0
363000000.0	0	0	0.37637802958488464	0	0	0	0	0
364000000.0	0	0	0.37617358565330505	0	0	0	0	0
365000000.0	0	0	0.37617358565330505	0	0	0	0	0
366000000.0	0	0	0.37538811564445496	0	0	0	0	0
367000000.0	0	0	0.37538811564445496	0	0	0	0	0
368000000.0	0	0	0.37731823325157166	0	0	0	0	0
369000000.0	0	0	0.37731823325157166	0	0	0	0	0
370000000.0	0	0	0.3841429054737091	0	0	0	0	0
371000000.0	0	0	0.3841429054737091	0	0	0	0	0
372000000.0	0	0	0.38766103982925415	0	0	0	0	0
373000000.0	0	0	0.38766103982925415	0	0	0	0	0
374000000.0	0	0	0.38948801159858704	0	0	0	0	0
375000000.0	0	0	0.38948801159858704	0	0	0	0	0
376000000.0	0	0	0.3939930498600006	0	0	0	0	0
377000000.0	0	0	0.3939930498600006	0	0	0	0	0
378000000.0	0	0	0.39553603529930115	0	0	0	0	0
379000000.0	0	0	0.39553603529930115	0	0	0	0	0
380000000.0	0	0	0.3979698419570923	0	0	0	0	0
381000000.0	0	0	0.3979698419570923	0	0	0	0	0
382000000.0	0	0	0.39833131432533264	0	0	0	0	0
383000000.0	0	0	0.39833131432533264	0	0	0	0	0
384000000.0	0	0	0.3983117938041687	0	0	0	0	0
385000000.0	0	0	0.3983117938041687	0	0	0	0	0
386000000.0	0	0	0.3986242413520813	0	0	0	0	0
387000000.0	0	0	0.3986242413520813	0	0	0	0	0
388000000.0	0	0	0.39908111095428467	0	0	0	0	0
389000000.0	0	0	0.39908111095428467	0	0	0	0	0
390000000.0	0	0	0.39683642983436584	0	0	0	0	0
391000000.0	0	0	0.39683642983436584	0	0	0	0	0
392000000.0	0	0	0.397988498210907	0	0	0	0	0
393000000.0	0	0	0.397988498210907	0	0	0	0	0
394000000.0	0	0	0.3939407765865326	0	0	0	0	0
395000000.0	0	0	0.3939407765865326	0	0	0	0	0
396000000.0	0	0	0.39207708835601807	0	0	0	0	0
397000000.0	0	0	0.39207708835601807	0	0	0	0	0
398000000.0	0	0	0.3908599019050598	0	0	0	0	0
399000000.0	0	0	0.3908599019050598	0	0	0	0	0
400000000.0	0	0	0.3901420533657074	0	0	0	0	0
401000000.0	0	0	0.3901420533657074	0	0	0	0	0
402000000.0	0	0	0.3900836110115051	0	0	0	0	0
403000000.0	0	0	0.3900836110115051	0	0	0	0	0
404000000.0	0	0	0.3918828070163727	0	0	0	0	0
405000000.0	0	0	0.3918828070163727	0	0	0	0	0
406000000.0	0	0	0.39151081442832947	0	0	0	0	0
407000000.0	0	0	0.39151081442832947	0	0	0	0	0
408000000.0	0	0	0.39283302426338196	0	0	0	0	0
409000000.0	0	0	0.39283302426338196	0	0	0	0	0
410000000.0	0	0	0.39067816734313965	0	0	0	0	0
411000000.0	0	0	0.39067816734313965	0	0	0	0	0
412000000.0	0	0	0.39352452754974365	0	0	0	0	0
413000000.0	0	0	0.39352452754974365	0	0	0	0	0
414000000.0	0	0	0.3998400568962097	0	0	0	0	0
415000000.0	0	0	0.3998400568962097	0	0	0	0	0
416000000.0	0	0	0.4009786546230316	0	0	0	0	0
417000000.0	0	0	0.4009786546230316	0	0	0	0	0
418000000.0	0	0	0.4014265835285187	0	0	0	0	0
419000000.0	0	0	0.4014265835285187	0	0	0	0	0
420000000.0	0	0	0.4044106900691986	0	0	0	0	0
421000000.0	0	0	0.4044106900691986	0	0	0	0	0
422000000.0	0	0	0.4052669107913971	0	0	0	0	0
423000000.0	0	0	0.4052669107913971	0	0	0	0	0
424000000.0	0	0	0.408989280462265	0	0	0	0	0
425000000.0	0	0	0.408989280462265	0	0	0	0	0
426000000.0	0	0	0.40631285309791565	0	0	0	0	0
427000000.0	0	0	0.40631285309791565	0	0	0	0	0
428000000.0	0	0	0.4049113988876343	0	0	0	0	0
429000000.0	0	0	0.4049113988876343	0	0	0	0	0
430000000.0	0	0	0.40567803382873535	0	0	0	0	0
431000000.0	0	0	0.40567803382873535	0	0	0	0	0
432000000.0	0	0	0.4041374623775482	0	0	0	0	0
433000000.0	0	0	0.4041374623775482	0	0	0	0	0
434000000.0	0	0	0.4021938443183899	0	0	0	0	0
435000000.0	0	0	0.4021938443183899	0	0	0	0	0
436000000.0	0	0	0.4015124440193176	0	0	0	0	0
437000000.0	0	0	0.4015124440193176	0	0	0	0	0
438000000.0	0	0	0.39973726868629456	0	0	0	0	0
439000000.0	0	0	0.39973726868629456	0	0	0	0	0
440000000.0	0	0	0.39942997694015503	0	0	0	0	0
441000000.0	0	0	0.39942997694015503	0	0	0	0	0
442000000.0	0	0	0.39744195342063904	0	0	0	0	0
443000000.0	0	0	0.39744195342063904	0	0	0	0	0
444000000.0	0	0	0.3935861885547638	0	0	0	0	0
445000000.0	0	0	0.3935861885547638	0	0	0	0	0
446000000.0	0	0	0.3909083902835846	0	0	0	0	0
447000000.0	0	0	0.3909083902835846	0	0	0	0	0
448000000.0	0	0	0.3857755661010742	0	0	0	0	0
449000000.0	0	0	0.3857755661010742	0	0	0	0	0
450000000.0	0	0	0.3860102593898773	0	0	0	0	0
451000000.0	0	0	0.3860102593898773	0	0	0	0	0
452000000.0	0	0	0.3832058906555176	0	0	0	0	0
453000000.0	0	0	0.3832058906555176	0	0	0	0	0
454000000.0	0	0	0.3814120590686798	0	0	0	0	0
455000000.0	0	0	0.3814120590686798	0	0	0	0	0
456000000.0	0	0	0.37870392203330994	0	0	0	0	0
457000000.0	0	0	0.37870392203330994	0	0	0	0	0
458000000.0	0	0	0.37813541293144226	0	0	0	0	0
459000000.0	0	0	0.37813541293144226	0	0	0	0	0
460000000.0	0	0	0.3801962435245514	0	0	0	0	0
461000000.0	0	0	0.3801962435245514	0	0	0	0	0
462000000.0	0	0	0.3812198340892792	0	0	0	0	0
463000000.0	0	0	0.3812198340892792	0	0	0	0	0
464000000.0	0	0	0.37785327434539795	0	0	0	0	0
465000000.0	0	0	0.37785327434539795	0	0	0	0	0
466000000.0	0	0	0.37494853138923645	0	0	0	0	0
467000000.0	0	0	0.37494853138923645	0	0	0	0	0
468000000.0	0	0	0.37672093510627747	0	0	0	0	0
469000000.0	0	0	0.37672093510627747	0	0	0	0	0
470000000.0	0	0	0.3780249059200287	0	0	0	0	0
471000000.0	0	0	0.3780249059200287	0	0	0	0	0
472000000.0	0	0	0.3787159323692322	0	0	0	0	0
473000000.0	0	0	0.3787159323692322	0	0	0	0	0
474000000.0	0	0	0.38256174325942993	0	0	0	0	0
475000000.0	0	0	0.38256174325942993	0	0	0	0	0
476000000.0	0	0	0.3870328664779663	0	0	0	0	0
477000000.0	0	0	0.3870328664779663	0	0	0	0	0
478000000.0	0	0	0.38943541049957275	0	0	0	0	0
479000000.0	0	0	0.38943541049957275	0	0	0	0	0
480000000.0	0	0	0.388277143239975	0	0	0	0	0
481000000.0	0	0	0.388277143239975	0	0	0	0	0
482000000.0	0	0	0.3906503915786743	0	0	0	0	0
483000000.0	0	0	0.3906503915786743	0	0	0	0	0
484000000.0	0	0	0.3934413492679596	0	0	0	0	0
485000000.0	0	0	0.3934413492679596	0	0	0	0	0
486000000.0	0	0	0.39231380820274353	0	0	0	0	0
487000000.0	0	0	0.39231380820274353	0	0	0	0	0
488000000.0	0	0	0.39808088541030884	0	0	0	0	0
489000000.0	0	0	0.39808088541030884	0	0	0	0	0
490000000.0	0	0	0.4013824164867401	0	0	0	0	0
491000000.0	0	0	0.4013824164867401	0	0	0	0	0
492000000.0	0	0	0.4022195339202881	0	0	0	0	0
493000000.0	0	0	0.4022195339202881	0	0	0	0	0
494000000.0	0	0	0.4033363163471222	0	0	0	0	0
495000000.0	0	0	0.4033363163471222	0	0	0	0	0
496000000.0	0	0	0.40583452582359314	0	0	0	0	0
497000000.0	0	0	0.40583452582359314	0	0	0	0	0
498000000.0	0	0	0.4053393602371216	0	0	0	0	0
499000000.0	0	0	0.4053393602371216	0	0	0	0	0
500000000.0	0	0	0.4086557626724243	0	0	0	0	0
501000000.0	0	0	0.4086557626724243	0	0	0	0	0
502000000.0	0	0	0.41020795702934265	0	0	0	0	0
503000000.0	0	0	0.41020795702934265	0	0	0	0	0
504000000.0	0	0	0.4132719337940216	0	0	0	0	0
505000000.0	0	0	0.4132719337940216	0	0	0	0	0
506000000.0	0	0	0.4166521430015564	0	0	0	0	0
507000000.0	0	0	0.4166521430015564	0	0	0	0	0
508000000.0	0	0	0.4199405312538147	0	0	0	0	0
509000000.0	0	0	0.4199405312538147	0	0	0	0	0
510000000.0	0	0	0.4203914701938629	0	0	0	0	0
511000000.0	0	0	0.4203914701938629	0	0	0	0	0
512000000.0	0	0	0.4195927381515503	0	0	0	0	0
513000000.0	0	0	0.4195927381515503	0	0	0	0	0
514000000.0	0	0	0.4185991585254669	0	0	0	0	0
515000000.0	0	0	0.4185991585254669	0	0	0	0	0
