!	Parâmetros S - Tag_ID_0 
#	Hz	S	MA	R	50 
!	Freq	magS11	angS11	magS21	angS21	magS12	angS12	magS22	angS22
78000000.0	0	0	0.12698626518249512	0	0	0	0	0
79000000.0	0	0	0.12698626518249512	0	0	0	0	0
80000000.0	0	0	0.12880152463912964	0	0	0	0	0
81000000.0	0	0	0.12880152463912964	0	0	0	0	0
82000000.0	0	0	0.1311984360218048	0	0	0	0	0
83000000.0	0	0	0.1311984360218048	0	0	0	0	0
84000000.0	0	0	0.13701467216014862	0	0	0	0	0
85000000.0	0	0	0.13701467216014862	0	0	0	0	0
86000000.0	0	0	0.1403113603591919	0	0	0	0	0
87000000.0	0	0	0.1403113603591919	0	0	0	0	0
88000000.0	0	0	0.1430247277021408	0	0	0	0	0
89000000.0	0	0	0.1430247277021408	0	0	0	0	0
90000000.0	0	0	0.14720439910888672	0	0	0	0	0
91000000.0	0	0	0.14720439910888672	0	0	0	0	0
92000000.0	0	0	0.1510150134563446	0	0	0	0	0
93000000.0	0	0	0.1510150134563446	0	0	0	0	0
94000000.0	0	0	0.15365974605083466	0	0	0	0	0
95000000.0	0	0	0.15365974605083466	0	0	0	0	0
96000000.0	0	0	0.15626288950443268	0	0	0	0	0
97000000.0	0	0	0.15626288950443268	0	0	0	0	0
98000000.0	0	0	0.16055819392204285	0	0	0	0	0
99000000.0	0	0	0.16055819392204285	0	0	0	0	0
100000000.0	0	0	0.16317936778068542	0	0	0	0	0
101000000.0	0	0	0.16317936778068542	0	0	0	0	0
102000000.0	0	0	0.16876059770584106	0	0	0	0	0
103000000.0	0	0	0.16876059770584106	0	0	0	0	0
104000000.0	0	0	0.1734922230243683	0	0	0	0	0
105000000.0	0	0	0.1734922230243683	0	0	0	0	0
106000000.0	0	0	0.17466917634010315	0	0	0	0	0
107000000.0	0	0	0.17466917634010315	0	0	0	0	0
108000000.0	0	0	0.17790882289409637	0	0	0	0	0
109000000.0	0	0	0.17790882289409637	0	0	0	0	0
110000000.0	0	0	0.17901277542114258	0	0	0	0	0
111000000.0	0	0	0.17901277542114258	0	0	0	0	0
112000000.0	0	0	0.1794537454843521	0	0	0	0	0
113000000.0	0	0	0.1794537454843521	0	0	0	0	0
114000000.0	0	0	0.18402287364006042	0	0	0	0	0
115000000.0	0	0	0.18402287364006042	0	0	0	0	0
116000000.0	0	0	0.18616899847984314	0	0	0	0	0
117000000.0	0	0	0.18616899847984314	0	0	0	0	0
118000000.0	0	0	0.19053751230239868	0	0	0	0	0
119000000.0	0	0	0.19053751230239868	0	0	0	0	0
120000000.0	0	0	0.1938013881444931	0	0	0	0	0
121000000.0	0	0	0.1938013881444931	0	0	0	0	0
122000000.0	0	0	0.19883930683135986	0	0	0	0	0
123000000.0	0	0	0.19883930683135986	0	0	0	0	0
124000000.0	0	0	0.20505915582180023	0	0	0	0	0
125000000.0	0	0	0.20505915582180023	0	0	0	0	0
126000000.0	0	0	0.2105565369129181	0	0	0	0	0
127000000.0	0	0	0.2105565369129181	0	0	0	0	0
128000000.0	0	0	0.20926091074943542	0	0	0	0	0
129000000.0	0	0	0.20926091074943542	0	0	0	0	0
130000000.0	0	0	0.21305830776691437	0	0	0	0	0
131000000.0	0	0	0.21305830776691437	0	0	0	0	0
132000000.0	0	0	0.21662698686122894	0	0	0	0	0
133000000.0	0	0	0.21662698686122894	0	0	0	0	0
134000000.0	0	0	0.22056981921195984	0	0	0	0	0
135000000.0	0	0	0.22056981921195984	0	0	0	0	0
136000000.0	0	0	0.22600504755973816	0	0	0	0	0
137000000.0	0	0	0.22600504755973816	0	0	0	0	0
138000000.0	0	0	0.23229260742664337	0	0	0	0	0
139000000.0	0	0	0.23229260742664337	0	0	0	0	0
140000000.0	0	0	0.23420730233192444	0	0	0	0	0
141000000.0	0	0	0.23420730233192444	0	0	0	0	0
142000000.0	0	0	0.23712222278118134	0	0	0	0	0
143000000.0	0	0	0.23712222278118134	0	0	0	0	0
144000000.0	0	0	0.24207322299480438	0	0	0	0	0
145000000.0	0	0	0.24207322299480438	0	0	0	0	0
146000000.0	0	0	0.24674160778522491	0	0	0	0	0
147000000.0	0	0	0.24674160778522491	0	0	0	0	0
148000000.0	0	0	0.24920132756233215	0	0	0	0	0
149000000.0	0	0	0.24920132756233215	0	0	0	0	0
150000000.0	0	0	0.251939594745636	0	0	0	0	0
151000000.0	0	0	0.251939594745636	0	0	0	0	0
152000000.0	0	0	0.2550782859325409	0	0	0	0	0
153000000.0	0	0	0.2550782859325409	0	0	0	0	0
154000000.0	0	0	0.26051104068756104	0	0	0	0	0
155000000.0	0	0	0.26051104068756104	0	0	0	0	0
156000000.0	0	0	0.2628518044948578	0	0	0	0	0
157000000.0	0	0	0.2628518044948578	0	0	0	0	0
158000000.0	0	0	0.26737475395202637	0	0	0	0	0
159000000.0	0	0	0.26737475395202637	0	0	0	0	0
160000000.0	0	0	0.26941922307014465	0	0	0	0	0
161000000.0	0	0	0.26941922307014465	0	0	0	0	0
162000000.0	0	0	0.26997241377830505	0	0	0	0	0
163000000.0	0	0	0.26997241377830505	0	0	0	0	0
164000000.0	0	0	0.2700815200805664	0	0	0	0	0
165000000.0	0	0	0.2700815200805664	0	0	0	0	0
166000000.0	0	0	0.27037763595581055	0	0	0	0	0
167000000.0	0	0	0.27037763595581055	0	0	0	0	0
168000000.0	0	0	0.2713854908943176	0	0	0	0	0
169000000.0	0	0	0.2713854908943176	0	0	0	0	0
170000000.0	0	0	0.271370530128479	0	0	0	0	0
171000000.0	0	0	0.271370530128479	0	0	0	0	0
172000000.0	0	0	0.2699100077152252	0	0	0	0	0
173000000.0	0	0	0.2699100077152252	0	0	0	0	0
174000000.0	0	0	0.26998940110206604	0	0	0	0	0
175000000.0	0	0	0.26998940110206604	0	0	0	0	0
176000000.0	0	0	0.2714579105377197	0	0	0	0	0
177000000.0	0	0	0.2714579105377197	0	0	0	0	0
178000000.0	0	0	0.2735215723514557	0	0	0	0	0
179000000.0	0	0	0.2735215723514557	0	0	0	0	0
180000000.0	0	0	0.27500271797180176	0	0	0	0	0
181000000.0	0	0	0.27500271797180176	0	0	0	0	0
182000000.0	0	0	0.27545109391212463	0	0	0	0	0
183000000.0	0	0	0.27545109391212463	0	0	0	0	0
184000000.0	0	0	0.27628618478775024	0	0	0	0	0
185000000.0	0	0	0.27628618478775024	0	0	0	0	0
186000000.0	0	0	0.27480804920196533	0	0	0	0	0
187000000.0	0	0	0.27480804920196533	0	0	0	0	0
188000000.0	0	0	0.2773764133453369	0	0	0	0	0
189000000.0	0	0	0.2773764133453369	0	0	0	0	0
190000000.0	0	0	0.28100070357322693	0	0	0	0	0
191000000.0	0	0	0.28100070357322693	0	0	0	0	0
192000000.0	0	0	0.2839357852935791	0	0	0	0	0
193000000.0	0	0	0.2839357852935791	0	0	0	0	0
194000000.0	0	0	0.28643035888671875	0	0	0	0	0
195000000.0	0	0	0.28643035888671875	0	0	0	0	0
196000000.0	0	0	0.2893373966217041	0	0	0	0	0
197000000.0	0	0	0.2893373966217041	0	0	0	0	0
198000000.0	0	0	0.29157957434654236	0	0	0	0	0
199000000.0	0	0	0.29157957434654236	0	0	0	0	0
200000000.0	0	0	0.2924373149871826	0	0	0	0	0
201000000.0	0	0	0.2924373149871826	0	0	0	0	0
202000000.0	0	0	0.2937553822994232	0	0	0	0	0
203000000.0	0	0	0.2937553822994232	0	0	0	0	0
204000000.0	0	0	0.29447871446609497	0	0	0	0	0
205000000.0	0	0	0.29447871446609497	0	0	0	0	0
206000000.0	0	0	0.2943868041038513	0	0	0	0	0
207000000.0	0	0	0.2943868041038513	0	0	0	0	0
208000000.0	0	0	0.29828518629074097	0	0	0	0	0
209000000.0	0	0	0.29828518629074097	0	0	0	0	0
210000000.0	0	0	0.30160608887672424	0	0	0	0	0
211000000.0	0	0	0.30160608887672424	0	0	0	0	0
212000000.0	0	0	0.3036757707595825	0	0	0	0	0
213000000.0	0	0	0.3036757707595825	0	0	0	0	0
214000000.0	0	0	0.3036344051361084	0	0	0	0	0
215000000.0	0	0	0.3036344051361084	0	0	0	0	0
216000000.0	0	0	0.3048035502433777	0	0	0	0	0
217000000.0	0	0	0.3048035502433777	0	0	0	0	0
218000000.0	0	0	0.30671241879463196	0	0	0	0	0
219000000.0	0	0	0.30671241879463196	0	0	0	0	0
220000000.0	0	0	0.3077697455883026	0	0	0	0	0
221000000.0	0	0	0.3077697455883026	0	0	0	0	0
222000000.0	0	0	0.30982306599617004	0	0	0	0	0
223000000.0	0	0	0.30982306599617004	0	0	0	0	0
224000000.0	0	0	0.3101838231086731	0	0	0	0	0
225000000.0	0	0	0.3101838231086731	0	0	0	0	0
226000000.0	0	0	0.31029316782951355	0	0	0	0	0
227000000.0	0	0	0.31029316782951355	0	0	0	0	0
228000000.0	0	0	0.31377720832824707	0	0	0	0	0
229000000.0	0	0	0.31377720832824707	0	0	0	0	0
230000000.0	0	0	0.3132217526435852	0	0	0	0	0
231000000.0	0	0	0.3132217526435852	0	0	0	0	0
232000000.0	0	0	0.31341004371643066	0	0	0	0	0
233000000.0	0	0	0.31341004371643066	0	0	0	0	0
234000000.0	0	0	0.3127885162830353	0	0	0	0	0
235000000.0	0	0	0.3127885162830353	0	0	0	0	0
236000000.0	0	0	0.31511446833610535	0	0	0	0	0
237000000.0	0	0	0.31511446833610535	0	0	0	0	0
238000000.0	0	0	0.3166726529598236	0	0	0	0	0
239000000.0	0	0	0.3166726529598236	0	0	0	0	0
240000000.0	0	0	0.31893375515937805	0	0	0	0	0
241000000.0	0	0	0.31893375515937805	0	0	0	0	0
242000000.0	0	0	0.31977611780166626	0	0	0	0	0
243000000.0	0	0	0.31977611780166626	0	0	0	0	0
244000000.0	0	0	0.32014554738998413	0	0	0	0	0
245000000.0	0	0	0.32014554738998413	0	0	0	0	0
246000000.0	0	0	0.3190203011035919	0	0	0	0	0
247000000.0	0	0	0.3190203011035919	0	0	0	0	0
248000000.0	0	0	0.31946510076522827	0	0	0	0	0
249000000.0	0	0	0.31946510076522827	0	0	0	0	0
250000000.0	0	0	0.3255619406700134	0	0	0	0	0
251000000.0	0	0	0.3255619406700134	0	0	0	0	0
252000000.0	0	0	0.3267447054386139	0	0	0	0	0
253000000.0	0	0	0.3267447054386139	0	0	0	0	0
254000000.0	0	0	0.3303648829460144	0	0	0	0	0
255000000.0	0	0	0.3303648829460144	0	0	0	0	0
256000000.0	0	0	0.32990947365760803	0	0	0	0	0
257000000.0	0	0	0.32990947365760803	0	0	0	0	0
258000000.0	0	0	0.3330343961715698	0	0	0	0	0
259000000.0	0	0	0.3330343961715698	0	0	0	0	0
260000000.0	0	0	0.33558326959609985	0	0	0	0	0
261000000.0	0	0	0.33558326959609985	0	0	0	0	0
262000000.0	0	0	0.3367939889431	0	0	0	0	0
263000000.0	0	0	0.3367939889431	0	0	0	0	0
264000000.0	0	0	0.33830365538597107	0	0	0	0	0
265000000.0	0	0	0.33830365538597107	0	0	0	0	0
266000000.0	0	0	0.33892789483070374	0	0	0	0	0
267000000.0	0	0	0.33892789483070374	0	0	0	0	0
268000000.0	0	0	0.33585283160209656	0	0	0	0	0
269000000.0	0	0	0.33585283160209656	0	0	0	0	0
270000000.0	0	0	0.3380141258239746	0	0	0	0	0
271000000.0	0	0	0.3380141258239746	0	0	0	0	0
272000000.0	0	0	0.3404632806777954	0	0	0	0	0
273000000.0	0	0	0.3404632806777954	0	0	0	0	0
274000000.0	0	0	0.33829396963119507	0	0	0	0	0
275000000.0	0	0	0.33829396963119507	0	0	0	0	0
276000000.0	0	0	0.33726373314857483	0	0	0	0	0
277000000.0	0	0	0.33726373314857483	0	0	0	0	0
278000000.0	0	0	0.3403465449810028	0	0	0	0	0
279000000.0	0	0	0.3403465449810028	0	0	0	0	0
280000000.0	0	0	0.33754879236221313	0	0	0	0	0
281000000.0	0	0	0.33754879236221313	0	0	0	0	0
282000000.0	0	0	0.3392922878265381	0	0	0	0	0
283000000.0	0	0	0.3392922878265381	0	0	0	0	0
284000000.0	0	0	0.33939361572265625	0	0	0	0	0
285000000.0	0	0	0.33939361572265625	0	0	0	0	0
286000000.0	0	0	0.3396867513656616	0	0	0	0	0
287000000.0	0	0	0.3396867513656616	0	0	0	0	0
288000000.0	0	0	0.3397645652294159	0	0	0	0	0
289000000.0	0	0	0.3397645652294159	0	0	0	0	0
290000000.0	0	0	0.3436828851699829	0	0	0	0	0
291000000.0	0	0	0.3436828851699829	0	0	0	0	0
292000000.0	0	0	0.3423630893230438	0	0	0	0	0
293000000.0	0	0	0.3423630893230438	0	0	0	0	0
294000000.0	0	0	0.3439035415649414	0	0	0	0	0
295000000.0	0	0	0.3439035415649414	0	0	0	0	0
296000000.0	0	0	0.34499281644821167	0	0	0	0	0
297000000.0	0	0	0.34499281644821167	0	0	0	0	0
298000000.0	0	0	0.3426699638366699	0	0	0	0	0
299000000.0	0	0	0.3426699638366699	0	0	0	0	0
300000000.0	0	0	0.3475314676761627	0	0	0	0	0
301000000.0	0	0	0.3475314676761627	0	0	0	0	0
302000000.0	0	0	0.3468218147754669	0	0	0	0	0
303000000.0	0	0	0.3468218147754669	0	0	0	0	0
304000000.0	0	0	0.3460657000541687	0	0	0	0	0
305000000.0	0	0	0.3460657000541687	0	0	0	0	0
306000000.0	0	0	0.3467153012752533	0	0	0	0	0
307000000.0	0	0	0.3467153012752533	0	0	0	0	0
308000000.0	0	0	0.3456972539424896	0	0	0	0	0
309000000.0	0	0	0.3456972539424896	0	0	0	0	0
310000000.0	0	0	0.3463270962238312	0	0	0	0	0
311000000.0	0	0	0.3463270962238312	0	0	0	0	0
312000000.0	0	0	0.346106618642807	0	0	0	0	0
313000000.0	0	0	0.346106618642807	0	0	0	0	0
314000000.0	0	0	0.346036821603775	0	0	0	0	0
315000000.0	0	0	0.346036821603775	0	0	0	0	0
316000000.0	0	0	0.34903404116630554	0	0	0	0	0
317000000.0	0	0	0.34903404116630554	0	0	0	0	0
318000000.0	0	0	0.3481124937534332	0	0	0	0	0
319000000.0	0	0	0.3481124937534332	0	0	0	0	0
320000000.0	0	0	0.3467161953449249	0	0	0	0	0
321000000.0	0	0	0.3467161953449249	0	0	0	0	0
322000000.0	0	0	0.3509950637817383	0	0	0	0	0
323000000.0	0	0	0.3509950637817383	0	0	0	0	0
324000000.0	0	0	0.3494783937931061	0	0	0	0	0
325000000.0	0	0	0.3494783937931061	0	0	0	0	0
326000000.0	0	0	0.35177385807037354	0	0	0	0	0
327000000.0	0	0	0.35177385807037354	0	0	0	0	0
328000000.0	0	0	0.3530886769294739	0	0	0	0	0
329000000.0	0	0	0.3530886769294739	0	0	0	0	0
330000000.0	0	0	0.35490304231643677	0	0	0	0	0
331000000.0	0	0	0.35490304231643677	0	0	0	0	0
332000000.0	0	0	0.35550370812416077	0	0	0	0	0
333000000.0	0	0	0.35550370812416077	0	0	0	0	0
334000000.0	0	0	0.3581283390522003	0	0	0	0	0
335000000.0	0	0	0.3581283390522003	0	0	0	0	0
336000000.0	0	0	0.3589867055416107	0	0	0	0	0
337000000.0	0	0	0.3589867055416107	0	0	0	0	0
338000000.0	0	0	0.3618563711643219	0	0	0	0	0
339000000.0	0	0	0.3618563711643219	0	0	0	0	0
340000000.0	0	0	0.3623853027820587	0	0	0	0	0
341000000.0	0	0	0.3623853027820587	0	0	0	0	0
342000000.0	0	0	0.36189761757850647	0	0	0	0	0
343000000.0	0	0	0.36189761757850647	0	0	0	0	0
344000000.0	0	0	0.3623884320259094	0	0	0	0	0
345000000.0	0	0	0.3623884320259094	0	0	0	0	0
346000000.0	0	0	0.3640366196632385	0	0	0	0	0
347000000.0	0	0	0.3640366196632385	0	0	0	0	0
348000000.0	0	0	0.36249426007270813	0	0	0	0	0
349000000.0	0	0	0.36249426007270813	0	0	0	0	0
350000000.0	0	0	0.3642948865890503	0	0	0	0	0
351000000.0	0	0	0.3642948865890503	0	0	0	0	0
352000000.0	0	0	0.36426639556884766	0	0	0	0	0
353000000.0	0	0	0.36426639556884766	0	0	0	0	0
354000000.0	0	0	0.36577633023262024	0	0	0	0	0
355000000.0	0	0	0.36577633023262024	0	0	0	0	0
356000000.0	0	0	0.36786240339279175	0	0	0	0	0
357000000.0	0	0	0.36786240339279175	0	0	0	0	0
358000000.0	0	0	0.36822041869163513	0	0	0	0	0
359000000.0	0	0	0.36822041869163513	0	0	0	0	0
360000000.0	0	0	0.3690073788166046	0	0	0	0	0
361000000.0	0	0	0.3690073788166046	0	0	0	0	0
362000000.0	0	0	0.3676208257675171	0	0	0	0	0
363000000.0	0	0	0.3676208257675171	0	0	0	0	0
364000000.0	0	0	0.3654658794403076	0	0	0	0	0
365000000.0	0	0	0.3654658794403076	0	0	0	0	0
366000000.0	0	0	0.3688420355319977	0	0	0	0	0
367000000.0	0	0	0.3688420355319977	0	0	0	0	0
368000000.0	0	0	0.3670996427536011	0	0	0	0	0
369000000.0	0	0	0.3670996427536011	0	0	0	0	0
370000000.0	0	0	0.3707008957862854	0	0	0	0	0
371000000.0	0	0	0.3707008957862854	0	0	0	0	0
372000000.0	0	0	0.3690221309661865	0	0	0	0	0
373000000.0	0	0	0.3690221309661865	0	0	0	0	0
374000000.0	0	0	0.3715127110481262	0	0	0	0	0
375000000.0	0	0	0.3715127110481262	0	0	0	0	0
376000000.0	0	0	0.3713058829307556	0	0	0	0	0
377000000.0	0	0	0.3713058829307556	0	0	0	0	0
378000000.0	0	0	0.3684794306755066	0	0	0	0	0
379000000.0	0	0	0.3684794306755066	0	0	0	0	0
380000000.0	0	0	0.370528906583786	0	0	0	0	0
381000000.0	0	0	0.370528906583786	0	0	0	0	0
382000000.0	0	0	0.3714173436164856	0	0	0	0	0
383000000.0	0	0	0.3714173436164856	0	0	0	0	0
384000000.0	0	0	0.3731726408004761	0	0	0	0	0
385000000.0	0	0	0.3731726408004761	0	0	0	0	0
386000000.0	0	0	0.37270215153694153	0	0	0	0	0
387000000.0	0	0	0.37270215153694153	0	0	0	0	0
388000000.0	0	0	0.3758094906806946	0	0	0	0	0
389000000.0	0	0	0.3758094906806946	0	0	0	0	0
390000000.0	0	0	0.3738928735256195	0	0	0	0	0
391000000.0	0	0	0.3738928735256195	0	0	0	0	0
392000000.0	0	0	0.3751169443130493	0	0	0	0	0
393000000.0	0	0	0.3751169443130493	0	0	0	0	0
394000000.0	0	0	0.3748524785041809	0	0	0	0	0
395000000.0	0	0	0.3748524785041809	0	0	0	0	0
396000000.0	0	0	0.3756091296672821	0	0	0	0	0
397000000.0	0	0	0.3756091296672821	0	0	0	0	0
398000000.0	0	0	0.3750000596046448	0	0	0	0	0
399000000.0	0	0	0.3750000596046448	0	0	0	0	0
400000000.0	0	0	0.37320104241371155	0	0	0	0	0
401000000.0	0	0	0.37320104241371155	0	0	0	0	0
402000000.0	0	0	0.3809868395328522	0	0	0	0	0
403000000.0	0	0	0.3809868395328522	0	0	0	0	0
404000000.0	0	0	0.3836131691932678	0	0	0	0	0
405000000.0	0	0	0.3836131691932678	0	0	0	0	0
406000000.0	0	0	0.3827769160270691	0	0	0	0	0
407000000.0	0	0	0.3827769160270691	0	0	0	0	0
408000000.0	0	0	0.3800485134124756	0	0	0	0	0
409000000.0	0	0	0.3800485134124756	0	0	0	0	0
410000000.0	0	0	0.3800836503505707	0	0	0	0	0
411000000.0	0	0	0.3800836503505707	0	0	0	0	0
412000000.0	0	0	0.38134363293647766	0	0	0	0	0
413000000.0	0	0	0.38134363293647766	0	0	0	0	0
414000000.0	0	0	0.3825947940349579	0	0	0	0	0
415000000.0	0	0	0.3825947940349579	0	0	0	0	0
416000000.0	0	0	0.38555222749710083	0	0	0	0	0
417000000.0	0	0	0.38555222749710083	0	0	0	0	0
418000000.0	0	0	0.38466525077819824	0	0	0	0	0
419000000.0	0	0	0.38466525077819824	0	0	0	0	0
420000000.0	0	0	0.38553839921951294	0	0	0	0	0
421000000.0	0	0	0.38553839921951294	0	0	0	0	0
422000000.0	0	0	0.3888368606567383	0	0	0	0	0
423000000.0	0	0	0.3888368606567383	0	0	0	0	0
424000000.0	0	0	0.3925761580467224	0	0	0	0	0
425000000.0	0	0	0.3925761580467224	0	0	0	0	0
426000000.0	0	0	0.39342036843299866	0	0	0	0	0
427000000.0	0	0	0.39342036843299866	0	0	0	0	0
428000000.0	0	0	0.3937166631221771	0	0	0	0	0
429000000.0	0	0	0.3937166631221771	0	0	0	0	0
430000000.0	0	0	0.3904418647289276	0	0	0	0	0
431000000.0	0	0	0.3904418647289276	0	0	0	0	0
432000000.0	0	0	0.38977885246276855	0	0	0	0	0
433000000.0	0	0	0.38977885246276855	0	0	0	0	0
434000000.0	0	0	0.38827136158943176	0	0	0	0	0
435000000.0	0	0	0.38827136158943176	0	0	0	0	0
436000000.0	0	0	0.38700541853904724	0	0	0	0	0
437000000.0	0	0	0.38700541853904724	0	0	0	0	0
438000000.0	0	0	0.3893013596534729	0	0	0	0	0
439000000.0	0	0	0.3893013596534729	0	0	0	0	0
440000000.0	0	0	0.3894706964492798	0	0	0	0	0
441000000.0	0	0	0.3894706964492798	0	0	0	0	0
442000000.0	0	0	0.3887019455432892	0	0	0	0	0
443000000.0	0	0	0.3887019455432892	0	0	0	0	0
444000000.0	0	0	0.3845946490764618	0	0	0	0	0
445000000.0	0	0	0.3845946490764618	0	0	0	0	0
446000000.0	0	0	0.3853375315666199	0	0	0	0	0
447000000.0	0	0	0.3853375315666199	0	0	0	0	0
448000000.0	0	0	0.3831294775009155	0	0	0	0	0
449000000.0	0	0	0.3831294775009155	0	0	0	0	0
450000000.0	0	0	0.38665592670440674	0	0	0	0	0
451000000.0	0	0	0.38665592670440674	0	0	0	0	0
452000000.0	0	0	0.386628657579422	0	0	0	0	0
453000000.0	0	0	0.386628657579422	0	0	0	0	0
454000000.0	0	0	0.3844566345214844	0	0	0	0	0
455000000.0	0	0	0.3844566345214844	0	0	0	0	0
456000000.0	0	0	0.3847500681877136	0	0	0	0	0
457000000.0	0	0	0.3847500681877136	0	0	0	0	0
458000000.0	0	0	0.3830307424068451	0	0	0	0	0
459000000.0	0	0	0.3830307424068451	0	0	0	0	0
460000000.0	0	0	0.3870806396007538	0	0	0	0	0
461000000.0	0	0	0.3870806396007538	0	0	0	0	0
462000000.0	0	0	0.3856455683708191	0	0	0	0	0
463000000.0	0	0	0.3856455683708191	0	0	0	0	0
464000000.0	0	0	0.3836144804954529	0	0	0	0	0
465000000.0	0	0	0.3836144804954529	0	0	0	0	0
466000000.0	0	0	0.3833753764629364	0	0	0	0	0
467000000.0	0	0	0.3833753764629364	0	0	0	0	0
468000000.0	0	0	0.3840230107307434	0	0	0	0	0
469000000.0	0	0	0.3840230107307434	0	0	0	0	0
470000000.0	0	0	0.3829180896282196	0	0	0	0	0
471000000.0	0	0	0.3829180896282196	0	0	0	0	0
472000000.0	0	0	0.37617960572242737	0	0	0	0	0
473000000.0	0	0	0.37617960572242737	0	0	0	0	0
474000000.0	0	0	0.36954089999198914	0	0	0	0	0
475000000.0	0	0	0.36954089999198914	0	0	0	0	0
476000000.0	0	0	0.3715795576572418	0	0	0	0	0
477000000.0	0	0	0.3715795576572418	0	0	0	0	0
478000000.0	0	0	0.3733021318912506	0	0	0	0	0
479000000.0	0	0	0.3733021318912506	0	0	0	0	0
480000000.0	0	0	0.37567248940467834	0	0	0	0	0
481000000.0	0	0	0.37567248940467834	0	0	0	0	0
482000000.0	0	0	0.377044141292572	0	0	0	0	0
483000000.0	0	0	0.377044141292572	0	0	0	0	0
484000000.0	0	0	0.3790226876735687	0	0	0	0	0
485000000.0	0	0	0.3790226876735687	0	0	0	0	0
486000000.0	0	0	0.3774341642856598	0	0	0	0	0
487000000.0	0	0	0.3774341642856598	0	0	0	0	0
488000000.0	0	0	0.37858057022094727	0	0	0	0	0
489000000.0	0	0	0.37858057022094727	0	0	0	0	0
490000000.0	0	0	0.38223108649253845	0	0	0	0	0
491000000.0	0	0	0.38223108649253845	0	0	0	0	0
492000000.0	0	0	0.3876698613166809	0	0	0	0	0
493000000.0	0	0	0.3876698613166809	0	0	0	0	0
494000000.0	0	0	0.38717928528785706	0	0	0	0	0
495000000.0	0	0	0.38717928528785706	0	0	0	0	0
496000000.0	0	0	0.3952360153198242	0	0	0	0	0
497000000.0	0	0	0.3952360153198242	0	0	0	0	0
498000000.0	0	0	0.4005909562110901	0	0	0	0	0
499000000.0	0	0	0.4005909562110901	0	0	0	0	0
500000000.0	0	0	0.39903491735458374	0	0	0	0	0
501000000.0	0	0	0.39903491735458374	0	0	0	0	0
502000000.0	0	0	0.39740127325057983	0	0	0	0	0
503000000.0	0	0	0.39740127325057983	0	0	0	0	0
504000000.0	0	0	0.40311798453330994	0	0	0	0	0
505000000.0	0	0	0.40311798453330994	0	0	0	0	0
506000000.0	0	0	0.4031184911727905	0	0	0	0	0
507000000.0	0	0	0.4031184911727905	0	0	0	0	0
508000000.0	0	0	0.40213310718536377	0	0	0	0	0
509000000.0	0	0	0.40213310718536377	0	0	0	0	0
510000000.0	0	0	0.39879006147384644	0	0	0	0	0
511000000.0	0	0	0.39879006147384644	0	0	0	0	0
512000000.0	0	0	0.3965546488761902	0	0	0	0	0
513000000.0	0	0	0.3965546488761902	0	0	0	0	0
514000000.0	0	0	0.39506295323371887	0	0	0	0	0
515000000.0	0	0	0.39506295323371887	0	0	0	0	0
