!	Parâmetros S - Tag_ID_2 
#	Hz	S	MA	R	50 
!	Freq	magS11	angS11	magS21	angS21	magS12	angS12	magS22	angS22
78000000.0	0	0	0.24243535101413727	0	0	0	0	0
79000000.0	0	0	0.24243535101413727	0	0	0	0	0
80000000.0	0	0	0.2424364537000656	0	0	0	0	0
81000000.0	0	0	0.2424364537000656	0	0	0	0	0
82000000.0	0	0	0.2379194051027298	0	0	0	0	0
83000000.0	0	0	0.2379194051027298	0	0	0	0	0
84000000.0	0	0	0.2331334501504898	0	0	0	0	0
85000000.0	0	0	0.2331334501504898	0	0	0	0	0
86000000.0	0	0	0.2295079380273819	0	0	0	0	0
87000000.0	0	0	0.2295079380273819	0	0	0	0	0
88000000.0	0	0	0.22577473521232605	0	0	0	0	0
89000000.0	0	0	0.22577473521232605	0	0	0	0	0
90000000.0	0	0	0.22271433472633362	0	0	0	0	0
91000000.0	0	0	0.22271433472633362	0	0	0	0	0
92000000.0	0	0	0.22283397614955902	0	0	0	0	0
93000000.0	0	0	0.22283397614955902	0	0	0	0	0
94000000.0	0	0	0.22277915477752686	0	0	0	0	0
95000000.0	0	0	0.22277915477752686	0	0	0	0	0
96000000.0	0	0	0.2223464399576187	0	0	0	0	0
97000000.0	0	0	0.2223464399576187	0	0	0	0	0
98000000.0	0	0	0.21907290816307068	0	0	0	0	0
99000000.0	0	0	0.21907290816307068	0	0	0	0	0
100000000.0	0	0	0.21791167557239532	0	0	0	0	0
101000000.0	0	0	0.21791167557239532	0	0	0	0	0
102000000.0	0	0	0.21627317368984222	0	0	0	0	0
103000000.0	0	0	0.21627317368984222	0	0	0	0	0
104000000.0	0	0	0.21612273156642914	0	0	0	0	0
105000000.0	0	0	0.21612273156642914	0	0	0	0	0
106000000.0	0	0	0.21626374125480652	0	0	0	0	0
107000000.0	0	0	0.21626374125480652	0	0	0	0	0
108000000.0	0	0	0.21796128153800964	0	0	0	0	0
109000000.0	0	0	0.21796128153800964	0	0	0	0	0
110000000.0	0	0	0.222109854221344	0	0	0	0	0
111000000.0	0	0	0.222109854221344	0	0	0	0	0
112000000.0	0	0	0.22942981123924255	0	0	0	0	0
113000000.0	0	0	0.22942981123924255	0	0	0	0	0
114000000.0	0	0	0.23018671572208405	0	0	0	0	0
115000000.0	0	0	0.23018671572208405	0	0	0	0	0
116000000.0	0	0	0.2327907681465149	0	0	0	0	0
117000000.0	0	0	0.2327907681465149	0	0	0	0	0
118000000.0	0	0	0.2348473221063614	0	0	0	0	0
119000000.0	0	0	0.2348473221063614	0	0	0	0	0
120000000.0	0	0	0.23558200895786285	0	0	0	0	0
121000000.0	0	0	0.23558200895786285	0	0	0	0	0
122000000.0	0	0	0.24072206020355225	0	0	0	0	0
123000000.0	0	0	0.24072206020355225	0	0	0	0	0
124000000.0	0	0	0.24625714123249054	0	0	0	0	0
125000000.0	0	0	0.24625714123249054	0	0	0	0	0
126000000.0	0	0	0.24801108241081238	0	0	0	0	0
127000000.0	0	0	0.24801108241081238	0	0	0	0	0
128000000.0	0	0	0.2535076439380646	0	0	0	0	0
129000000.0	0	0	0.2535076439380646	0	0	0	0	0
130000000.0	0	0	0.2620428800582886	0	0	0	0	0
131000000.0	0	0	0.2620428800582886	0	0	0	0	0
132000000.0	0	0	0.2708744406700134	0	0	0	0	0
133000000.0	0	0	0.2708744406700134	0	0	0	0	0
134000000.0	0	0	0.2779662311077118	0	0	0	0	0
135000000.0	0	0	0.2779662311077118	0	0	0	0	0
136000000.0	0	0	0.2832396924495697	0	0	0	0	0
137000000.0	0	0	0.2832396924495697	0	0	0	0	0
138000000.0	0	0	0.29138123989105225	0	0	0	0	0
139000000.0	0	0	0.29138123989105225	0	0	0	0	0
140000000.0	0	0	0.2960175573825836	0	0	0	0	0
141000000.0	0	0	0.2960175573825836	0	0	0	0	0
142000000.0	0	0	0.2993546426296234	0	0	0	0	0
143000000.0	0	0	0.2993546426296234	0	0	0	0	0
144000000.0	0	0	0.30618053674697876	0	0	0	0	0
145000000.0	0	0	0.30618053674697876	0	0	0	0	0
146000000.0	0	0	0.3149826228618622	0	0	0	0	0
147000000.0	0	0	0.3149826228618622	0	0	0	0	0
148000000.0	0	0	0.3216817378997803	0	0	0	0	0
149000000.0	0	0	0.3216817378997803	0	0	0	0	0
150000000.0	0	0	0.33046954870224	0	0	0	0	0
151000000.0	0	0	0.33046954870224	0	0	0	0	0
152000000.0	0	0	0.3351176977157593	0	0	0	0	0
153000000.0	0	0	0.3351176977157593	0	0	0	0	0
154000000.0	0	0	0.3375466763973236	0	0	0	0	0
155000000.0	0	0	0.3375466763973236	0	0	0	0	0
156000000.0	0	0	0.3416160047054291	0	0	0	0	0
157000000.0	0	0	0.3416160047054291	0	0	0	0	0
158000000.0	0	0	0.3454194962978363	0	0	0	0	0
159000000.0	0	0	0.3454194962978363	0	0	0	0	0
160000000.0	0	0	0.3479742407798767	0	0	0	0	0
161000000.0	0	0	0.3479742407798767	0	0	0	0	0
162000000.0	0	0	0.35302671790122986	0	0	0	0	0
163000000.0	0	0	0.35302671790122986	0	0	0	0	0
164000000.0	0	0	0.3553028702735901	0	0	0	0	0
165000000.0	0	0	0.3553028702735901	0	0	0	0	0
166000000.0	0	0	0.3612138628959656	0	0	0	0	0
167000000.0	0	0	0.3612138628959656	0	0	0	0	0
168000000.0	0	0	0.36465421319007874	0	0	0	0	0
169000000.0	0	0	0.36465421319007874	0	0	0	0	0
170000000.0	0	0	0.36470624804496765	0	0	0	0	0
171000000.0	0	0	0.36470624804496765	0	0	0	0	0
172000000.0	0	0	0.36727023124694824	0	0	0	0	0
173000000.0	0	0	0.36727023124694824	0	0	0	0	0
174000000.0	0	0	0.36315667629241943	0	0	0	0	0
175000000.0	0	0	0.36315667629241943	0	0	0	0	0
176000000.0	0	0	0.3631400763988495	0	0	0	0	0
177000000.0	0	0	0.3631400763988495	0	0	0	0	0
178000000.0	0	0	0.36437541246414185	0	0	0	0	0
179000000.0	0	0	0.36437541246414185	0	0	0	0	0
180000000.0	0	0	0.3626488447189331	0	0	0	0	0
181000000.0	0	0	0.3626488447189331	0	0	0	0	0
182000000.0	0	0	0.3599812090396881	0	0	0	0	0
183000000.0	0	0	0.3599812090396881	0	0	0	0	0
184000000.0	0	0	0.3601181209087372	0	0	0	0	0
185000000.0	0	0	0.3601181209087372	0	0	0	0	0
186000000.0	0	0	0.356299489736557	0	0	0	0	0
187000000.0	0	0	0.356299489736557	0	0	0	0	0
188000000.0	0	0	0.3550252914428711	0	0	0	0	0
189000000.0	0	0	0.3550252914428711	0	0	0	0	0
190000000.0	0	0	0.3549180030822754	0	0	0	0	0
191000000.0	0	0	0.3549180030822754	0	0	0	0	0
192000000.0	0	0	0.3537726104259491	0	0	0	0	0
193000000.0	0	0	0.3537726104259491	0	0	0	0	0
194000000.0	0	0	0.3533632457256317	0	0	0	0	0
195000000.0	0	0	0.3533632457256317	0	0	0	0	0
196000000.0	0	0	0.3533999025821686	0	0	0	0	0
197000000.0	0	0	0.3533999025821686	0	0	0	0	0
198000000.0	0	0	0.3538019061088562	0	0	0	0	0
199000000.0	0	0	0.3538019061088562	0	0	0	0	0
200000000.0	0	0	0.3532153069972992	0	0	0	0	0
201000000.0	0	0	0.3532153069972992	0	0	0	0	0
202000000.0	0	0	0.35229799151420593	0	0	0	0	0
203000000.0	0	0	0.35229799151420593	0	0	0	0	0
204000000.0	0	0	0.35347968339920044	0	0	0	0	0
205000000.0	0	0	0.35347968339920044	0	0	0	0	0
206000000.0	0	0	0.3544873297214508	0	0	0	0	0
207000000.0	0	0	0.3544873297214508	0	0	0	0	0
208000000.0	0	0	0.35664311051368713	0	0	0	0	0
209000000.0	0	0	0.35664311051368713	0	0	0	0	0
210000000.0	0	0	0.35774049162864685	0	0	0	0	0
211000000.0	0	0	0.35774049162864685	0	0	0	0	0
212000000.0	0	0	0.36348655819892883	0	0	0	0	0
213000000.0	0	0	0.36348655819892883	0	0	0	0	0
214000000.0	0	0	0.3626251220703125	0	0	0	0	0
215000000.0	0	0	0.3626251220703125	0	0	0	0	0
216000000.0	0	0	0.3622055649757385	0	0	0	0	0
217000000.0	0	0	0.3622055649757385	0	0	0	0	0
218000000.0	0	0	0.3622759282588959	0	0	0	0	0
219000000.0	0	0	0.3622759282588959	0	0	0	0	0
220000000.0	0	0	0.3623436689376831	0	0	0	0	0
221000000.0	0	0	0.3623436689376831	0	0	0	0	0
222000000.0	0	0	0.3623529076576233	0	0	0	0	0
223000000.0	0	0	0.3623529076576233	0	0	0	0	0
224000000.0	0	0	0.3638331890106201	0	0	0	0	0
225000000.0	0	0	0.3638331890106201	0	0	0	0	0
226000000.0	0	0	0.36127951741218567	0	0	0	0	0
227000000.0	0	0	0.36127951741218567	0	0	0	0	0
228000000.0	0	0	0.3606796860694885	0	0	0	0	0
229000000.0	0	0	0.3606796860694885	0	0	0	0	0
230000000.0	0	0	0.3562302589416504	0	0	0	0	0
231000000.0	0	0	0.3562302589416504	0	0	0	0	0
232000000.0	0	0	0.3544752299785614	0	0	0	0	0
233000000.0	0	0	0.3544752299785614	0	0	0	0	0
234000000.0	0	0	0.35282570123672485	0	0	0	0	0
235000000.0	0	0	0.35282570123672485	0	0	0	0	0
236000000.0	0	0	0.35231083631515503	0	0	0	0	0
237000000.0	0	0	0.35231083631515503	0	0	0	0	0
238000000.0	0	0	0.35060057044029236	0	0	0	0	0
239000000.0	0	0	0.35060057044029236	0	0	0	0	0
240000000.0	0	0	0.3512570858001709	0	0	0	0	0
241000000.0	0	0	0.3512570858001709	0	0	0	0	0
242000000.0	0	0	0.3529646098613739	0	0	0	0	0
243000000.0	0	0	0.3529646098613739	0	0	0	0	0
244000000.0	0	0	0.35229557752609253	0	0	0	0	0
245000000.0	0	0	0.35229557752609253	0	0	0	0	0
246000000.0	0	0	0.3512762784957886	0	0	0	0	0
247000000.0	0	0	0.3512762784957886	0	0	0	0	0
248000000.0	0	0	0.3530086874961853	0	0	0	0	0
249000000.0	0	0	0.3530086874961853	0	0	0	0	0
250000000.0	0	0	0.35283163189888	0	0	0	0	0
251000000.0	0	0	0.35283163189888	0	0	0	0	0
252000000.0	0	0	0.35660576820373535	0	0	0	0	0
253000000.0	0	0	0.35660576820373535	0	0	0	0	0
254000000.0	0	0	0.36211827397346497	0	0	0	0	0
255000000.0	0	0	0.36211827397346497	0	0	0	0	0
256000000.0	0	0	0.36855730414390564	0	0	0	0	0
257000000.0	0	0	0.36855730414390564	0	0	0	0	0
258000000.0	0	0	0.3676672875881195	0	0	0	0	0
259000000.0	0	0	0.3676672875881195	0	0	0	0	0
260000000.0	0	0	0.369747132062912	0	0	0	0	0
261000000.0	0	0	0.369747132062912	0	0	0	0	0
262000000.0	0	0	0.37213146686553955	0	0	0	0	0
263000000.0	0	0	0.37213146686553955	0	0	0	0	0
264000000.0	0	0	0.374947726726532	0	0	0	0	0
265000000.0	0	0	0.374947726726532	0	0	0	0	0
266000000.0	0	0	0.37891343235969543	0	0	0	0	0
267000000.0	0	0	0.37891343235969543	0	0	0	0	0
268000000.0	0	0	0.38175711035728455	0	0	0	0	0
269000000.0	0	0	0.38175711035728455	0	0	0	0	0
270000000.0	0	0	0.38337984681129456	0	0	0	0	0
271000000.0	0	0	0.38337984681129456	0	0	0	0	0
272000000.0	0	0	0.384149432182312	0	0	0	0	0
273000000.0	0	0	0.384149432182312	0	0	0	0	0
274000000.0	0	0	0.3842526376247406	0	0	0	0	0
275000000.0	0	0	0.3842526376247406	0	0	0	0	0
276000000.0	0	0	0.38265466690063477	0	0	0	0	0
277000000.0	0	0	0.38265466690063477	0	0	0	0	0
278000000.0	0	0	0.3854397237300873	0	0	0	0	0
279000000.0	0	0	0.3854397237300873	0	0	0	0	0
280000000.0	0	0	0.38215014338493347	0	0	0	0	0
281000000.0	0	0	0.38215014338493347	0	0	0	0	0
282000000.0	0	0	0.3864358365535736	0	0	0	0	0
283000000.0	0	0	0.3864358365535736	0	0	0	0	0
284000000.0	0	0	0.38928914070129395	0	0	0	0	0
285000000.0	0	0	0.38928914070129395	0	0	0	0	0
286000000.0	0	0	0.39173460006713867	0	0	0	0	0
287000000.0	0	0	0.39173460006713867	0	0	0	0	0
288000000.0	0	0	0.39339277148246765	0	0	0	0	0
289000000.0	0	0	0.39339277148246765	0	0	0	0	0
290000000.0	0	0	0.39438214898109436	0	0	0	0	0
291000000.0	0	0	0.39438214898109436	0	0	0	0	0
292000000.0	0	0	0.3920937776565552	0	0	0	0	0
293000000.0	0	0	0.3920937776565552	0	0	0	0	0
294000000.0	0	0	0.3951747417449951	0	0	0	0	0
295000000.0	0	0	0.3951747417449951	0	0	0	0	0
296000000.0	0	0	0.39868226647377014	0	0	0	0	0
297000000.0	0	0	0.39868226647377014	0	0	0	0	0
298000000.0	0	0	0.40285301208496094	0	0	0	0	0
299000000.0	0	0	0.40285301208496094	0	0	0	0	0
300000000.0	0	0	0.40442049503326416	0	0	0	0	0
301000000.0	0	0	0.40442049503326416	0	0	0	0	0
302000000.0	0	0	0.4036160111427307	0	0	0	0	0
303000000.0	0	0	0.4036160111427307	0	0	0	0	0
304000000.0	0	0	0.406006783246994	0	0	0	0	0
305000000.0	0	0	0.406006783246994	0	0	0	0	0
306000000.0	0	0	0.4069291055202484	0	0	0	0	0
307000000.0	0	0	0.4069291055202484	0	0	0	0	0
308000000.0	0	0	0.40777820348739624	0	0	0	0	0
309000000.0	0	0	0.40777820348739624	0	0	0	0	0
310000000.0	0	0	0.40845367312431335	0	0	0	0	0
311000000.0	0	0	0.40845367312431335	0	0	0	0	0
312000000.0	0	0	0.4090021252632141	0	0	0	0	0
313000000.0	0	0	0.4090021252632141	0	0	0	0	0
314000000.0	0	0	0.41027089953422546	0	0	0	0	0
315000000.0	0	0	0.41027089953422546	0	0	0	0	0
316000000.0	0	0	0.41146621108055115	0	0	0	0	0
317000000.0	0	0	0.41146621108055115	0	0	0	0	0
318000000.0	0	0	0.410886287689209	0	0	0	0	0
319000000.0	0	0	0.410886287689209	0	0	0	0	0
320000000.0	0	0	0.41099169850349426	0	0	0	0	0
321000000.0	0	0	0.41099169850349426	0	0	0	0	0
322000000.0	0	0	0.4130592942237854	0	0	0	0	0
323000000.0	0	0	0.4130592942237854	0	0	0	0	0
324000000.0	0	0	0.4101911187171936	0	0	0	0	0
325000000.0	0	0	0.4101911187171936	0	0	0	0	0
326000000.0	0	0	0.41166287660598755	0	0	0	0	0
327000000.0	0	0	0.41166287660598755	0	0	0	0	0
328000000.0	0	0	0.41821151971817017	0	0	0	0	0
329000000.0	0	0	0.41821151971817017	0	0	0	0	0
330000000.0	0	0	0.41871780157089233	0	0	0	0	0
331000000.0	0	0	0.41871780157089233	0	0	0	0	0
332000000.0	0	0	0.4185337424278259	0	0	0	0	0
333000000.0	0	0	0.4185337424278259	0	0	0	0	0
334000000.0	0	0	0.418703556060791	0	0	0	0	0
335000000.0	0	0	0.418703556060791	0	0	0	0	0
336000000.0	0	0	0.4193492531776428	0	0	0	0	0
337000000.0	0	0	0.4193492531776428	0	0	0	0	0
338000000.0	0	0	0.41600462794303894	0	0	0	0	0
339000000.0	0	0	0.41600462794303894	0	0	0	0	0
340000000.0	0	0	0.41735443472862244	0	0	0	0	0
341000000.0	0	0	0.41735443472862244	0	0	0	0	0
342000000.0	0	0	0.4173225164413452	0	0	0	0	0
343000000.0	0	0	0.4173225164413452	0	0	0	0	0
344000000.0	0	0	0.41369006037712097	0	0	0	0	0
345000000.0	0	0	0.41369006037712097	0	0	0	0	0
346000000.0	0	0	0.41383495926856995	0	0	0	0	0
347000000.0	0	0	0.41383495926856995	0	0	0	0	0
348000000.0	0	0	0.41002801060676575	0	0	0	0	0
349000000.0	0	0	0.41002801060676575	0	0	0	0	0
350000000.0	0	0	0.41207292675971985	0	0	0	0	0
351000000.0	0	0	0.41207292675971985	0	0	0	0	0
352000000.0	0	0	0.414277046918869	0	0	0	0	0
353000000.0	0	0	0.414277046918869	0	0	0	0	0
354000000.0	0	0	0.4146072566509247	0	0	0	0	0
355000000.0	0	0	0.4146072566509247	0	0	0	0	0
356000000.0	0	0	0.41691675782203674	0	0	0	0	0
357000000.0	0	0	0.41691675782203674	0	0	0	0	0
358000000.0	0	0	0.4169044494628906	0	0	0	0	0
359000000.0	0	0	0.4169044494628906	0	0	0	0	0
360000000.0	0	0	0.4166434705257416	0	0	0	0	0
361000000.0	0	0	0.4166434705257416	0	0	0	0	0
362000000.0	0	0	0.41575878858566284	0	0	0	0	0
363000000.0	0	0	0.41575878858566284	0	0	0	0	0
364000000.0	0	0	0.4192456901073456	0	0	0	0	0
365000000.0	0	0	0.4192456901073456	0	0	0	0	0
366000000.0	0	0	0.4208473861217499	0	0	0	0	0
367000000.0	0	0	0.4208473861217499	0	0	0	0	0
368000000.0	0	0	0.4222141206264496	0	0	0	0	0
369000000.0	0	0	0.4222141206264496	0	0	0	0	0
370000000.0	0	0	0.42291611433029175	0	0	0	0	0
371000000.0	0	0	0.42291611433029175	0	0	0	0	0
372000000.0	0	0	0.42029136419296265	0	0	0	0	0
373000000.0	0	0	0.42029136419296265	0	0	0	0	0
374000000.0	0	0	0.4245224893093109	0	0	0	0	0
375000000.0	0	0	0.4245224893093109	0	0	0	0	0
376000000.0	0	0	0.4206741154193878	0	0	0	0	0
377000000.0	0	0	0.4206741154193878	0	0	0	0	0
378000000.0	0	0	0.4173661470413208	0	0	0	0	0
379000000.0	0	0	0.4173661470413208	0	0	0	0	0
380000000.0	0	0	0.4159705340862274	0	0	0	0	0
381000000.0	0	0	0.4159705340862274	0	0	0	0	0
382000000.0	0	0	0.4157797694206238	0	0	0	0	0
383000000.0	0	0	0.4157797694206238	0	0	0	0	0
384000000.0	0	0	0.41481873393058777	0	0	0	0	0
385000000.0	0	0	0.41481873393058777	0	0	0	0	0
386000000.0	0	0	0.4198121726512909	0	0	0	0	0
387000000.0	0	0	0.4198121726512909	0	0	0	0	0
388000000.0	0	0	0.41784343123435974	0	0	0	0	0
389000000.0	0	0	0.41784343123435974	0	0	0	0	0
390000000.0	0	0	0.4149208962917328	0	0	0	0	0
391000000.0	0	0	0.4149208962917328	0	0	0	0	0
392000000.0	0	0	0.41649025678634644	0	0	0	0	0
393000000.0	0	0	0.41649025678634644	0	0	0	0	0
394000000.0	0	0	0.4165150225162506	0	0	0	0	0
395000000.0	0	0	0.4165150225162506	0	0	0	0	0
396000000.0	0	0	0.4190419018268585	0	0	0	0	0
397000000.0	0	0	0.4190419018268585	0	0	0	0	0
398000000.0	0	0	0.4191679060459137	0	0	0	0	0
399000000.0	0	0	0.4191679060459137	0	0	0	0	0
400000000.0	0	0	0.42076244950294495	0	0	0	0	0
401000000.0	0	0	0.42076244950294495	0	0	0	0	0
402000000.0	0	0	0.42184507846832275	0	0	0	0	0
403000000.0	0	0	0.42184507846832275	0	0	0	0	0
404000000.0	0	0	0.4268612265586853	0	0	0	0	0
405000000.0	0	0	0.4268612265586853	0	0	0	0	0
406000000.0	0	0	0.42468276619911194	0	0	0	0	0
407000000.0	0	0	0.42468276619911194	0	0	0	0	0
408000000.0	0	0	0.4233040511608124	0	0	0	0	0
409000000.0	0	0	0.4233040511608124	0	0	0	0	0
410000000.0	0	0	0.4254266321659088	0	0	0	0	0
411000000.0	0	0	0.4254266321659088	0	0	0	0	0
412000000.0	0	0	0.42250803112983704	0	0	0	0	0
413000000.0	0	0	0.42250803112983704	0	0	0	0	0
414000000.0	0	0	0.42391327023506165	0	0	0	0	0
415000000.0	0	0	0.42391327023506165	0	0	0	0	0
416000000.0	0	0	0.4280521273612976	0	0	0	0	0
417000000.0	0	0	0.4280521273612976	0	0	0	0	0
418000000.0	0	0	0.4253024160861969	0	0	0	0	0
419000000.0	0	0	0.4253024160861969	0	0	0	0	0
420000000.0	0	0	0.42477092146873474	0	0	0	0	0
421000000.0	0	0	0.42477092146873474	0	0	0	0	0
422000000.0	0	0	0.42479392886161804	0	0	0	0	0
423000000.0	0	0	0.42479392886161804	0	0	0	0	0
424000000.0	0	0	0.4257544279098511	0	0	0	0	0
425000000.0	0	0	0.4257544279098511	0	0	0	0	0
426000000.0	0	0	0.427141398191452	0	0	0	0	0
427000000.0	0	0	0.427141398191452	0	0	0	0	0
428000000.0	0	0	0.4274260699748993	0	0	0	0	0
429000000.0	0	0	0.4274260699748993	0	0	0	0	0
430000000.0	0	0	0.42499417066574097	0	0	0	0	0
431000000.0	0	0	0.42499417066574097	0	0	0	0	0
432000000.0	0	0	0.42765599489212036	0	0	0	0	0
433000000.0	0	0	0.42765599489212036	0	0	0	0	0
434000000.0	0	0	0.42816871404647827	0	0	0	0	0
435000000.0	0	0	0.42816871404647827	0	0	0	0	0
436000000.0	0	0	0.4272364675998688	0	0	0	0	0
437000000.0	0	0	0.4272364675998688	0	0	0	0	0
438000000.0	0	0	0.4283701777458191	0	0	0	0	0
439000000.0	0	0	0.4283701777458191	0	0	0	0	0
440000000.0	0	0	0.423312246799469	0	0	0	0	0
441000000.0	0	0	0.423312246799469	0	0	0	0	0
442000000.0	0	0	0.422342985868454	0	0	0	0	0
443000000.0	0	0	0.422342985868454	0	0	0	0	0
444000000.0	0	0	0.4225185811519623	0	0	0	0	0
445000000.0	0	0	0.4225185811519623	0	0	0	0	0
446000000.0	0	0	0.42460763454437256	0	0	0	0	0
447000000.0	0	0	0.42460763454437256	0	0	0	0	0
448000000.0	0	0	0.4237349033355713	0	0	0	0	0
449000000.0	0	0	0.4237349033355713	0	0	0	0	0
450000000.0	0	0	0.4194386899471283	0	0	0	0	0
451000000.0	0	0	0.4194386899471283	0	0	0	0	0
452000000.0	0	0	0.4127938151359558	0	0	0	0	0
453000000.0	0	0	0.4127938151359558	0	0	0	0	0
454000000.0	0	0	0.41390371322631836	0	0	0	0	0
455000000.0	0	0	0.41390371322631836	0	0	0	0	0
456000000.0	0	0	0.41364285349845886	0	0	0	0	0
457000000.0	0	0	0.41364285349845886	0	0	0	0	0
458000000.0	0	0	0.41468170285224915	0	0	0	0	0
459000000.0	0	0	0.41468170285224915	0	0	0	0	0
460000000.0	0	0	0.4105530381202698	0	0	0	0	0
461000000.0	0	0	0.4105530381202698	0	0	0	0	0
462000000.0	0	0	0.413837730884552	0	0	0	0	0
463000000.0	0	0	0.413837730884552	0	0	0	0	0
464000000.0	0	0	0.41878968477249146	0	0	0	0	0
465000000.0	0	0	0.41878968477249146	0	0	0	0	0
466000000.0	0	0	0.4199956953525543	0	0	0	0	0
467000000.0	0	0	0.4199956953525543	0	0	0	0	0
468000000.0	0	0	0.42009076476097107	0	0	0	0	0
469000000.0	0	0	0.42009076476097107	0	0	0	0	0
470000000.0	0	0	0.4179036319255829	0	0	0	0	0
471000000.0	0	0	0.4179036319255829	0	0	0	0	0
472000000.0	0	0	0.418423593044281	0	0	0	0	0
473000000.0	0	0	0.418423593044281	0	0	0	0	0
474000000.0	0	0	0.42438971996307373	0	0	0	0	0
475000000.0	0	0	0.42438971996307373	0	0	0	0	0
476000000.0	0	0	0.43104174733161926	0	0	0	0	0
477000000.0	0	0	0.43104174733161926	0	0	0	0	0
478000000.0	0	0	0.43182119727134705	0	0	0	0	0
479000000.0	0	0	0.43182119727134705	0	0	0	0	0
480000000.0	0	0	0.432380735874176	0	0	0	0	0
481000000.0	0	0	0.432380735874176	0	0	0	0	0
482000000.0	0	0	0.43183380365371704	0	0	0	0	0
483000000.0	0	0	0.43183380365371704	0	0	0	0	0
484000000.0	0	0	0.42789334058761597	0	0	0	0	0
485000000.0	0	0	0.42789334058761597	0	0	0	0	0
486000000.0	0	0	0.42497119307518005	0	0	0	0	0
487000000.0	0	0	0.42497119307518005	0	0	0	0	0
488000000.0	0	0	0.42405402660369873	0	0	0	0	0
489000000.0	0	0	0.42405402660369873	0	0	0	0	0
490000000.0	0	0	0.43048369884490967	0	0	0	0	0
491000000.0	0	0	0.43048369884490967	0	0	0	0	0
492000000.0	0	0	0.43048346042633057	0	0	0	0	0
493000000.0	0	0	0.43048346042633057	0	0	0	0	0
494000000.0	0	0	0.4340630769729614	0	0	0	0	0
495000000.0	0	0	0.4340630769729614	0	0	0	0	0
496000000.0	0	0	0.4335663914680481	0	0	0	0	0
497000000.0	0	0	0.4335663914680481	0	0	0	0	0
498000000.0	0	0	0.4327516555786133	0	0	0	0	0
499000000.0	0	0	0.4327516555786133	0	0	0	0	0
500000000.0	0	0	0.4328741431236267	0	0	0	0	0
501000000.0	0	0	0.4328741431236267	0	0	0	0	0
502000000.0	0	0	0.43497347831726074	0	0	0	0	0
503000000.0	0	0	0.43497347831726074	0	0	0	0	0
504000000.0	0	0	0.43904823064804077	0	0	0	0	0
505000000.0	0	0	0.43904823064804077	0	0	0	0	0
506000000.0	0	0	0.4429929852485657	0	0	0	0	0
507000000.0	0	0	0.4429929852485657	0	0	0	0	0
508000000.0	0	0	0.4431464374065399	0	0	0	0	0
509000000.0	0	0	0.4431464374065399	0	0	0	0	0
510000000.0	0	0	0.448383629322052	0	0	0	0	0
511000000.0	0	0	0.448383629322052	0	0	0	0	0
512000000.0	0	0	0.4464864432811737	0	0	0	0	0
513000000.0	0	0	0.4464864432811737	0	0	0	0	0
514000000.0	0	0	0.44482704997062683	0	0	0	0	0
515000000.0	0	0	0.44482704997062683	0	0	0	0	0
516000000.0	0	0	0.44422927498817444	0	0	0	0	0
