!	Parâmetros S - Tag_ID_4 
#	Hz	S	MA	R	50 
!	Freq	magS11	angS11	magS21	angS21	magS12	angS12	magS22	angS22
78000000.0	0	0	0.08884292095899582	0	0	0	0	0
79000000.0	0	0	0.08884292095899582	0	0	0	0	0
80000000.0	0	0	0.09033092856407166	0	0	0	0	0
81000000.0	0	0	0.09033092856407166	0	0	0	0	0
82000000.0	0	0	0.09945745021104813	0	0	0	0	0
83000000.0	0	0	0.09945745021104813	0	0	0	0	0
84000000.0	0	0	0.10875056684017181	0	0	0	0	0
85000000.0	0	0	0.10875056684017181	0	0	0	0	0
86000000.0	0	0	0.11563356220722198	0	0	0	0	0
87000000.0	0	0	0.11563356220722198	0	0	0	0	0
88000000.0	0	0	0.12368831038475037	0	0	0	0	0
89000000.0	0	0	0.12368831038475037	0	0	0	0	0
90000000.0	0	0	0.13020972907543182	0	0	0	0	0
91000000.0	0	0	0.13020972907543182	0	0	0	0	0
92000000.0	0	0	0.13872630894184113	0	0	0	0	0
93000000.0	0	0	0.13872630894184113	0	0	0	0	0
94000000.0	0	0	0.14509983360767365	0	0	0	0	0
95000000.0	0	0	0.14509983360767365	0	0	0	0	0
96000000.0	0	0	0.15419796109199524	0	0	0	0	0
97000000.0	0	0	0.15419796109199524	0	0	0	0	0
98000000.0	0	0	0.16128726303577423	0	0	0	0	0
99000000.0	0	0	0.16128726303577423	0	0	0	0	0
100000000.0	0	0	0.1694893091917038	0	0	0	0	0
101000000.0	0	0	0.1694893091917038	0	0	0	0	0
102000000.0	0	0	0.18058158457279205	0	0	0	0	0
103000000.0	0	0	0.18058158457279205	0	0	0	0	0
104000000.0	0	0	0.1909518837928772	0	0	0	0	0
105000000.0	0	0	0.1909518837928772	0	0	0	0	0
106000000.0	0	0	0.1948232352733612	0	0	0	0	0
107000000.0	0	0	0.1948232352733612	0	0	0	0	0
108000000.0	0	0	0.20196308195590973	0	0	0	0	0
109000000.0	0	0	0.20196308195590973	0	0	0	0	0
110000000.0	0	0	0.20646370947360992	0	0	0	0	0
111000000.0	0	0	0.20646370947360992	0	0	0	0	0
112000000.0	0	0	0.2122258096933365	0	0	0	0	0
113000000.0	0	0	0.2122258096933365	0	0	0	0	0
114000000.0	0	0	0.22112682461738586	0	0	0	0	0
115000000.0	0	0	0.22112682461738586	0	0	0	0	0
116000000.0	0	0	0.2291320264339447	0	0	0	0	0
117000000.0	0	0	0.2291320264339447	0	0	0	0	0
118000000.0	0	0	0.23625196516513824	0	0	0	0	0
119000000.0	0	0	0.23625196516513824	0	0	0	0	0
120000000.0	0	0	0.24329163134098053	0	0	0	0	0
121000000.0	0	0	0.24329163134098053	0	0	0	0	0
122000000.0	0	0	0.24763521552085876	0	0	0	0	0
123000000.0	0	0	0.24763521552085876	0	0	0	0	0
124000000.0	0	0	0.2577928900718689	0	0	0	0	0
125000000.0	0	0	0.2577928900718689	0	0	0	0	0
126000000.0	0	0	0.2676169276237488	0	0	0	0	0
127000000.0	0	0	0.2676169276237488	0	0	0	0	0
128000000.0	0	0	0.27872639894485474	0	0	0	0	0
129000000.0	0	0	0.27872639894485474	0	0	0	0	0
130000000.0	0	0	0.28671103715896606	0	0	0	0	0
131000000.0	0	0	0.28671103715896606	0	0	0	0	0
132000000.0	0	0	0.29360848665237427	0	0	0	0	0
133000000.0	0	0	0.29360848665237427	0	0	0	0	0
134000000.0	0	0	0.2985878586769104	0	0	0	0	0
135000000.0	0	0	0.2985878586769104	0	0	0	0	0
136000000.0	0	0	0.30955734848976135	0	0	0	0	0
137000000.0	0	0	0.30955734848976135	0	0	0	0	0
138000000.0	0	0	0.31167861819267273	0	0	0	0	0
139000000.0	0	0	0.31167861819267273	0	0	0	0	0
140000000.0	0	0	0.3176541030406952	0	0	0	0	0
141000000.0	0	0	0.3176541030406952	0	0	0	0	0
142000000.0	0	0	0.3243178725242615	0	0	0	0	0
143000000.0	0	0	0.3243178725242615	0	0	0	0	0
144000000.0	0	0	0.32715627551078796	0	0	0	0	0
145000000.0	0	0	0.32715627551078796	0	0	0	0	0
146000000.0	0	0	0.3334692120552063	0	0	0	0	0
147000000.0	0	0	0.3334692120552063	0	0	0	0	0
148000000.0	0	0	0.3368130326271057	0	0	0	0	0
149000000.0	0	0	0.3368130326271057	0	0	0	0	0
150000000.0	0	0	0.33834096789360046	0	0	0	0	0
151000000.0	0	0	0.33834096789360046	0	0	0	0	0
152000000.0	0	0	0.33874040842056274	0	0	0	0	0
153000000.0	0	0	0.33874040842056274	0	0	0	0	0
154000000.0	0	0	0.34253162145614624	0	0	0	0	0
155000000.0	0	0	0.34253162145614624	0	0	0	0	0
156000000.0	0	0	0.3451709747314453	0	0	0	0	0
157000000.0	0	0	0.3451709747314453	0	0	0	0	0
158000000.0	0	0	0.3455493748188019	0	0	0	0	0
159000000.0	0	0	0.3455493748188019	0	0	0	0	0
160000000.0	0	0	0.34498000144958496	0	0	0	0	0
161000000.0	0	0	0.34498000144958496	0	0	0	0	0
162000000.0	0	0	0.34678786993026733	0	0	0	0	0
163000000.0	0	0	0.34678786993026733	0	0	0	0	0
164000000.0	0	0	0.34517261385917664	0	0	0	0	0
165000000.0	0	0	0.34517261385917664	0	0	0	0	0
166000000.0	0	0	0.3424810767173767	0	0	0	0	0
167000000.0	0	0	0.3424810767173767	0	0	0	0	0
168000000.0	0	0	0.3454720675945282	0	0	0	0	0
169000000.0	0	0	0.3454720675945282	0	0	0	0	0
170000000.0	0	0	0.3451828360557556	0	0	0	0	0
171000000.0	0	0	0.3451828360557556	0	0	0	0	0
172000000.0	0	0	0.34579139947891235	0	0	0	0	0
173000000.0	0	0	0.34579139947891235	0	0	0	0	0
174000000.0	0	0	0.34467828273773193	0	0	0	0	0
175000000.0	0	0	0.34467828273773193	0	0	0	0	0
176000000.0	0	0	0.3450511693954468	0	0	0	0	0
177000000.0	0	0	0.3450511693954468	0	0	0	0	0
178000000.0	0	0	0.34603890776634216	0	0	0	0	0
179000000.0	0	0	0.34603890776634216	0	0	0	0	0
180000000.0	0	0	0.3444620668888092	0	0	0	0	0
181000000.0	0	0	0.3444620668888092	0	0	0	0	0
182000000.0	0	0	0.3464570641517639	0	0	0	0	0
183000000.0	0	0	0.3464570641517639	0	0	0	0	0
184000000.0	0	0	0.3487076759338379	0	0	0	0	0
185000000.0	0	0	0.3487076759338379	0	0	0	0	0
186000000.0	0	0	0.3498724102973938	0	0	0	0	0
187000000.0	0	0	0.3498724102973938	0	0	0	0	0
188000000.0	0	0	0.3478480875492096	0	0	0	0	0
189000000.0	0	0	0.3478480875492096	0	0	0	0	0
190000000.0	0	0	0.3500553369522095	0	0	0	0	0
191000000.0	0	0	0.3500553369522095	0	0	0	0	0
192000000.0	0	0	0.3478946387767792	0	0	0	0	0
193000000.0	0	0	0.3478946387767792	0	0	0	0	0
194000000.0	0	0	0.34841203689575195	0	0	0	0	0
195000000.0	0	0	0.34841203689575195	0	0	0	0	0
196000000.0	0	0	0.34873366355895996	0	0	0	0	0
197000000.0	0	0	0.34873366355895996	0	0	0	0	0
198000000.0	0	0	0.348626971244812	0	0	0	0	0
199000000.0	0	0	0.348626971244812	0	0	0	0	0
200000000.0	0	0	0.34852471947669983	0	0	0	0	0
201000000.0	0	0	0.34852471947669983	0	0	0	0	0
202000000.0	0	0	0.34726834297180176	0	0	0	0	0
203000000.0	0	0	0.34726834297180176	0	0	0	0	0
204000000.0	0	0	0.34576889872550964	0	0	0	0	0
205000000.0	0	0	0.34576889872550964	0	0	0	0	0
206000000.0	0	0	0.34709346294403076	0	0	0	0	0
207000000.0	0	0	0.34709346294403076	0	0	0	0	0
208000000.0	0	0	0.34479543566703796	0	0	0	0	0
209000000.0	0	0	0.34479543566703796	0	0	0	0	0
210000000.0	0	0	0.34166425466537476	0	0	0	0	0
211000000.0	0	0	0.34166425466537476	0	0	0	0	0
212000000.0	0	0	0.3405970633029938	0	0	0	0	0
213000000.0	0	0	0.3405970633029938	0	0	0	0	0
214000000.0	0	0	0.34199264645576477	0	0	0	0	0
215000000.0	0	0	0.34199264645576477	0	0	0	0	0
216000000.0	0	0	0.3412933647632599	0	0	0	0	0
217000000.0	0	0	0.3412933647632599	0	0	0	0	0
218000000.0	0	0	0.34183621406555176	0	0	0	0	0
219000000.0	0	0	0.34183621406555176	0	0	0	0	0
220000000.0	0	0	0.3408300578594208	0	0	0	0	0
221000000.0	0	0	0.3408300578594208	0	0	0	0	0
222000000.0	0	0	0.34041163325309753	0	0	0	0	0
223000000.0	0	0	0.34041163325309753	0	0	0	0	0
224000000.0	0	0	0.34025076031684875	0	0	0	0	0
225000000.0	0	0	0.34025076031684875	0	0	0	0	0
226000000.0	0	0	0.33792826533317566	0	0	0	0	0
227000000.0	0	0	0.33792826533317566	0	0	0	0	0
228000000.0	0	0	0.33821552991867065	0	0	0	0	0
229000000.0	0	0	0.33821552991867065	0	0	0	0	0
230000000.0	0	0	0.3395400643348694	0	0	0	0	0
231000000.0	0	0	0.3395400643348694	0	0	0	0	0
232000000.0	0	0	0.3390256464481354	0	0	0	0	0
233000000.0	0	0	0.3390256464481354	0	0	0	0	0
234000000.0	0	0	0.33726418018341064	0	0	0	0	0
235000000.0	0	0	0.33726418018341064	0	0	0	0	0
236000000.0	0	0	0.33594417572021484	0	0	0	0	0
237000000.0	0	0	0.33594417572021484	0	0	0	0	0
238000000.0	0	0	0.3388253152370453	0	0	0	0	0
239000000.0	0	0	0.3388253152370453	0	0	0	0	0
240000000.0	0	0	0.33794042468070984	0	0	0	0	0
241000000.0	0	0	0.33794042468070984	0	0	0	0	0
242000000.0	0	0	0.33688420057296753	0	0	0	0	0
243000000.0	0	0	0.33688420057296753	0	0	0	0	0
244000000.0	0	0	0.3389343321323395	0	0	0	0	0
245000000.0	0	0	0.3389343321323395	0	0	0	0	0
246000000.0	0	0	0.34129250049591064	0	0	0	0	0
247000000.0	0	0	0.34129250049591064	0	0	0	0	0
248000000.0	0	0	0.34166377782821655	0	0	0	0	0
249000000.0	0	0	0.34166377782821655	0	0	0	0	0
250000000.0	0	0	0.34331953525543213	0	0	0	0	0
251000000.0	0	0	0.34331953525543213	0	0	0	0	0
252000000.0	0	0	0.3482894003391266	0	0	0	0	0
253000000.0	0	0	0.3482894003391266	0	0	0	0	0
254000000.0	0	0	0.34879791736602783	0	0	0	0	0
255000000.0	0	0	0.34879791736602783	0	0	0	0	0
256000000.0	0	0	0.3501017987728119	0	0	0	0	0
257000000.0	0	0	0.3501017987728119	0	0	0	0	0
258000000.0	0	0	0.3548949062824249	0	0	0	0	0
259000000.0	0	0	0.3548949062824249	0	0	0	0	0
260000000.0	0	0	0.3562145233154297	0	0	0	0	0
261000000.0	0	0	0.3562145233154297	0	0	0	0	0
262000000.0	0	0	0.3597927987575531	0	0	0	0	0
263000000.0	0	0	0.3597927987575531	0	0	0	0	0
264000000.0	0	0	0.3616144359111786	0	0	0	0	0
265000000.0	0	0	0.3616144359111786	0	0	0	0	0
266000000.0	0	0	0.3670869767665863	0	0	0	0	0
267000000.0	0	0	0.3670869767665863	0	0	0	0	0
268000000.0	0	0	0.3685389757156372	0	0	0	0	0
269000000.0	0	0	0.3685389757156372	0	0	0	0	0
270000000.0	0	0	0.3729282021522522	0	0	0	0	0
271000000.0	0	0	0.3729282021522522	0	0	0	0	0
272000000.0	0	0	0.375345915555954	0	0	0	0	0
273000000.0	0	0	0.375345915555954	0	0	0	0	0
274000000.0	0	0	0.3782382309436798	0	0	0	0	0
275000000.0	0	0	0.3782382309436798	0	0	0	0	0
276000000.0	0	0	0.3810994327068329	0	0	0	0	0
277000000.0	0	0	0.3810994327068329	0	0	0	0	0
278000000.0	0	0	0.38465216755867004	0	0	0	0	0
279000000.0	0	0	0.38465216755867004	0	0	0	0	0
280000000.0	0	0	0.3893117904663086	0	0	0	0	0
281000000.0	0	0	0.3893117904663086	0	0	0	0	0
282000000.0	0	0	0.39087629318237305	0	0	0	0	0
283000000.0	0	0	0.39087629318237305	0	0	0	0	0
284000000.0	0	0	0.3970242738723755	0	0	0	0	0
285000000.0	0	0	0.3970242738723755	0	0	0	0	0
286000000.0	0	0	0.40010297298431396	0	0	0	0	0
287000000.0	0	0	0.40010297298431396	0	0	0	0	0
288000000.0	0	0	0.40254339575767517	0	0	0	0	0
289000000.0	0	0	0.40254339575767517	0	0	0	0	0
290000000.0	0	0	0.404478520154953	0	0	0	0	0
291000000.0	0	0	0.404478520154953	0	0	0	0	0
292000000.0	0	0	0.4059215486049652	0	0	0	0	0
293000000.0	0	0	0.4059215486049652	0	0	0	0	0
294000000.0	0	0	0.4061403274536133	0	0	0	0	0
295000000.0	0	0	0.4061403274536133	0	0	0	0	0
296000000.0	0	0	0.4031316041946411	0	0	0	0	0
297000000.0	0	0	0.4031316041946411	0	0	0	0	0
298000000.0	0	0	0.4055863916873932	0	0	0	0	0
299000000.0	0	0	0.4055863916873932	0	0	0	0	0
300000000.0	0	0	0.4060221016407013	0	0	0	0	0
301000000.0	0	0	0.4060221016407013	0	0	0	0	0
302000000.0	0	0	0.40182435512542725	0	0	0	0	0
303000000.0	0	0	0.40182435512542725	0	0	0	0	0
304000000.0	0	0	0.39553210139274597	0	0	0	0	0
305000000.0	0	0	0.39553210139274597	0	0	0	0	0
306000000.0	0	0	0.39290937781333923	0	0	0	0	0
307000000.0	0	0	0.39290937781333923	0	0	0	0	0
308000000.0	0	0	0.395661860704422	0	0	0	0	0
309000000.0	0	0	0.395661860704422	0	0	0	0	0
310000000.0	0	0	0.3900050222873688	0	0	0	0	0
311000000.0	0	0	0.3900050222873688	0	0	0	0	0
312000000.0	0	0	0.38507330417633057	0	0	0	0	0
313000000.0	0	0	0.38507330417633057	0	0	0	0	0
314000000.0	0	0	0.3812703490257263	0	0	0	0	0
315000000.0	0	0	0.3812703490257263	0	0	0	0	0
316000000.0	0	0	0.3788158893585205	0	0	0	0	0
317000000.0	0	0	0.3788158893585205	0	0	0	0	0
318000000.0	0	0	0.37423789501190186	0	0	0	0	0
319000000.0	0	0	0.37423789501190186	0	0	0	0	0
320000000.0	0	0	0.37223902344703674	0	0	0	0	0
321000000.0	0	0	0.37223902344703674	0	0	0	0	0
322000000.0	0	0	0.37044233083724976	0	0	0	0	0
323000000.0	0	0	0.37044233083724976	0	0	0	0	0
324000000.0	0	0	0.36766308546066284	0	0	0	0	0
325000000.0	0	0	0.36766308546066284	0	0	0	0	0
326000000.0	0	0	0.3693225383758545	0	0	0	0	0
327000000.0	0	0	0.3693225383758545	0	0	0	0	0
328000000.0	0	0	0.37269827723503113	0	0	0	0	0
329000000.0	0	0	0.37269827723503113	0	0	0	0	0
330000000.0	0	0	0.3729960322380066	0	0	0	0	0
331000000.0	0	0	0.3729960322380066	0	0	0	0	0
332000000.0	0	0	0.37177830934524536	0	0	0	0	0
333000000.0	0	0	0.37177830934524536	0	0	0	0	0
334000000.0	0	0	0.37427449226379395	0	0	0	0	0
335000000.0	0	0	0.37427449226379395	0	0	0	0	0
336000000.0	0	0	0.3760547935962677	0	0	0	0	0
337000000.0	0	0	0.3760547935962677	0	0	0	0	0
338000000.0	0	0	0.3759865462779999	0	0	0	0	0
339000000.0	0	0	0.3759865462779999	0	0	0	0	0
340000000.0	0	0	0.3774581253528595	0	0	0	0	0
341000000.0	0	0	0.3774581253528595	0	0	0	0	0
342000000.0	0	0	0.3802494406700134	0	0	0	0	0
343000000.0	0	0	0.3802494406700134	0	0	0	0	0
344000000.0	0	0	0.377709299325943	0	0	0	0	0
345000000.0	0	0	0.377709299325943	0	0	0	0	0
346000000.0	0	0	0.3737773001194	0	0	0	0	0
347000000.0	0	0	0.3737773001194	0	0	0	0	0
348000000.0	0	0	0.37325388193130493	0	0	0	0	0
349000000.0	0	0	0.37325388193130493	0	0	0	0	0
350000000.0	0	0	0.37002333998680115	0	0	0	0	0
351000000.0	0	0	0.37002333998680115	0	0	0	0	0
352000000.0	0	0	0.3693458139896393	0	0	0	0	0
353000000.0	0	0	0.3693458139896393	0	0	0	0	0
354000000.0	0	0	0.3664010465145111	0	0	0	0	0
355000000.0	0	0	0.3664010465145111	0	0	0	0	0
356000000.0	0	0	0.3610668182373047	0	0	0	0	0
357000000.0	0	0	0.3610668182373047	0	0	0	0	0
358000000.0	0	0	0.3563331067562103	0	0	0	0	0
359000000.0	0	0	0.3563331067562103	0	0	0	0	0
360000000.0	0	0	0.35175979137420654	0	0	0	0	0
361000000.0	0	0	0.35175979137420654	0	0	0	0	0
362000000.0	0	0	0.34780168533325195	0	0	0	0	0
363000000.0	0	0	0.34780168533325195	0	0	0	0	0
364000000.0	0	0	0.34386229515075684	0	0	0	0	0
365000000.0	0	0	0.34386229515075684	0	0	0	0	0
366000000.0	0	0	0.3366890847682953	0	0	0	0	0
367000000.0	0	0	0.3366890847682953	0	0	0	0	0
368000000.0	0	0	0.32770049571990967	0	0	0	0	0
369000000.0	0	0	0.32770049571990967	0	0	0	0	0
370000000.0	0	0	0.33331820368766785	0	0	0	0	0
371000000.0	0	0	0.33331820368766785	0	0	0	0	0
372000000.0	0	0	0.33601683378219604	0	0	0	0	0
373000000.0	0	0	0.33601683378219604	0	0	0	0	0
374000000.0	0	0	0.33550623059272766	0	0	0	0	0
375000000.0	0	0	0.33550623059272766	0	0	0	0	0
376000000.0	0	0	0.3312060832977295	0	0	0	0	0
377000000.0	0	0	0.3312060832977295	0	0	0	0	0
378000000.0	0	0	0.3288564682006836	0	0	0	0	0
379000000.0	0	0	0.3288564682006836	0	0	0	0	0
380000000.0	0	0	0.3297966420650482	0	0	0	0	0
381000000.0	0	0	0.3297966420650482	0	0	0	0	0
382000000.0	0	0	0.3331259787082672	0	0	0	0	0
383000000.0	0	0	0.3331259787082672	0	0	0	0	0
384000000.0	0	0	0.33748671412467957	0	0	0	0	0
385000000.0	0	0	0.33748671412467957	0	0	0	0	0
386000000.0	0	0	0.3367038071155548	0	0	0	0	0
387000000.0	0	0	0.3367038071155548	0	0	0	0	0
388000000.0	0	0	0.33932697772979736	0	0	0	0	0
389000000.0	0	0	0.33932697772979736	0	0	0	0	0
390000000.0	0	0	0.34291377663612366	0	0	0	0	0
391000000.0	0	0	0.34291377663612366	0	0	0	0	0
392000000.0	0	0	0.3459228575229645	0	0	0	0	0
393000000.0	0	0	0.3459228575229645	0	0	0	0	0
394000000.0	0	0	0.34586215019226074	0	0	0	0	0
395000000.0	0	0	0.34586215019226074	0	0	0	0	0
396000000.0	0	0	0.34360402822494507	0	0	0	0	0
397000000.0	0	0	0.34360402822494507	0	0	0	0	0
398000000.0	0	0	0.3397391736507416	0	0	0	0	0
399000000.0	0	0	0.3397391736507416	0	0	0	0	0
400000000.0	0	0	0.3425423204898834	0	0	0	0	0
401000000.0	0	0	0.3425423204898834	0	0	0	0	0
402000000.0	0	0	0.34592026472091675	0	0	0	0	0
403000000.0	0	0	0.34592026472091675	0	0	0	0	0
404000000.0	0	0	0.34797874093055725	0	0	0	0	0
405000000.0	0	0	0.34797874093055725	0	0	0	0	0
406000000.0	0	0	0.34873467683792114	0	0	0	0	0
407000000.0	0	0	0.34873467683792114	0	0	0	0	0
408000000.0	0	0	0.3490476608276367	0	0	0	0	0
409000000.0	0	0	0.3490476608276367	0	0	0	0	0
410000000.0	0	0	0.35615280270576477	0	0	0	0	0
411000000.0	0	0	0.35615280270576477	0	0	0	0	0
412000000.0	0	0	0.35686758160591125	0	0	0	0	0
413000000.0	0	0	0.35686758160591125	0	0	0	0	0
414000000.0	0	0	0.3575949966907501	0	0	0	0	0
415000000.0	0	0	0.3575949966907501	0	0	0	0	0
416000000.0	0	0	0.3626652956008911	0	0	0	0	0
417000000.0	0	0	0.3626652956008911	0	0	0	0	0
418000000.0	0	0	0.3646974563598633	0	0	0	0	0
419000000.0	0	0	0.3646974563598633	0	0	0	0	0
420000000.0	0	0	0.3661402761936188	0	0	0	0	0
421000000.0	0	0	0.3661402761936188	0	0	0	0	0
422000000.0	0	0	0.3687843680381775	0	0	0	0	0
423000000.0	0	0	0.3687843680381775	0	0	0	0	0
424000000.0	0	0	0.3761650025844574	0	0	0	0	0
425000000.0	0	0	0.3761650025844574	0	0	0	0	0
426000000.0	0	0	0.3808133602142334	0	0	0	0	0
427000000.0	0	0	0.3808133602142334	0	0	0	0	0
428000000.0	0	0	0.3855126202106476	0	0	0	0	0
429000000.0	0	0	0.3855126202106476	0	0	0	0	0
430000000.0	0	0	0.3867194354534149	0	0	0	0	0
431000000.0	0	0	0.3867194354534149	0	0	0	0	0
432000000.0	0	0	0.3877533972263336	0	0	0	0	0
433000000.0	0	0	0.3877533972263336	0	0	0	0	0
434000000.0	0	0	0.38974109292030334	0	0	0	0	0
435000000.0	0	0	0.38974109292030334	0	0	0	0	0
436000000.0	0	0	0.3889795243740082	0	0	0	0	0
437000000.0	0	0	0.3889795243740082	0	0	0	0	0
438000000.0	0	0	0.3936315178871155	0	0	0	0	0
439000000.0	0	0	0.3936315178871155	0	0	0	0	0
440000000.0	0	0	0.3948867917060852	0	0	0	0	0
441000000.0	0	0	0.3948867917060852	0	0	0	0	0
442000000.0	0	0	0.3966107666492462	0	0	0	0	0
443000000.0	0	0	0.3966107666492462	0	0	0	0	0
444000000.0	0	0	0.39818620681762695	0	0	0	0	0
445000000.0	0	0	0.39818620681762695	0	0	0	0	0
446000000.0	0	0	0.39569640159606934	0	0	0	0	0
447000000.0	0	0	0.39569640159606934	0	0	0	0	0
448000000.0	0	0	0.39681920409202576	0	0	0	0	0
449000000.0	0	0	0.39681920409202576	0	0	0	0	0
450000000.0	0	0	0.3981952369213104	0	0	0	0	0
451000000.0	0	0	0.3981952369213104	0	0	0	0	0
452000000.0	0	0	0.399305135011673	0	0	0	0	0
453000000.0	0	0	0.399305135011673	0	0	0	0	0
454000000.0	0	0	0.4012297987937927	0	0	0	0	0
455000000.0	0	0	0.4012297987937927	0	0	0	0	0
456000000.0	0	0	0.4044322669506073	0	0	0	0	0
457000000.0	0	0	0.4044322669506073	0	0	0	0	0
458000000.0	0	0	0.40657907724380493	0	0	0	0	0
459000000.0	0	0	0.40657907724380493	0	0	0	0	0
460000000.0	0	0	0.4071553349494934	0	0	0	0	0
461000000.0	0	0	0.4071553349494934	0	0	0	0	0
462000000.0	0	0	0.4057714641094208	0	0	0	0	0
463000000.0	0	0	0.4057714641094208	0	0	0	0	0
464000000.0	0	0	0.4083704650402069	0	0	0	0	0
465000000.0	0	0	0.4083704650402069	0	0	0	0	0
466000000.0	0	0	0.41427338123321533	0	0	0	0	0
467000000.0	0	0	0.41427338123321533	0	0	0	0	0
468000000.0	0	0	0.41639193892478943	0	0	0	0	0
469000000.0	0	0	0.41639193892478943	0	0	0	0	0
470000000.0	0	0	0.4148239493370056	0	0	0	0	0
471000000.0	0	0	0.4148239493370056	0	0	0	0	0
472000000.0	0	0	0.42249971628189087	0	0	0	0	0
473000000.0	0	0	0.42249971628189087	0	0	0	0	0
474000000.0	0	0	0.42573729157447815	0	0	0	0	0
475000000.0	0	0	0.42573729157447815	0	0	0	0	0
476000000.0	0	0	0.4244665503501892	0	0	0	0	0
477000000.0	0	0	0.4244665503501892	0	0	0	0	0
478000000.0	0	0	0.42318665981292725	0	0	0	0	0
479000000.0	0	0	0.42318665981292725	0	0	0	0	0
480000000.0	0	0	0.424178808927536	0	0	0	0	0
481000000.0	0	0	0.424178808927536	0	0	0	0	0
482000000.0	0	0	0.4217381477355957	0	0	0	0	0
483000000.0	0	0	0.4217381477355957	0	0	0	0	0
484000000.0	0	0	0.4235832393169403	0	0	0	0	0
485000000.0	0	0	0.4235832393169403	0	0	0	0	0
486000000.0	0	0	0.4266923666000366	0	0	0	0	0
487000000.0	0	0	0.4266923666000366	0	0	0	0	0
488000000.0	0	0	0.4267522096633911	0	0	0	0	0
489000000.0	0	0	0.4267522096633911	0	0	0	0	0
490000000.0	0	0	0.42517006397247314	0	0	0	0	0
491000000.0	0	0	0.42517006397247314	0	0	0	0	0
492000000.0	0	0	0.42524418234825134	0	0	0	0	0
493000000.0	0	0	0.42524418234825134	0	0	0	0	0
494000000.0	0	0	0.4292658865451813	0	0	0	0	0
495000000.0	0	0	0.4292658865451813	0	0	0	0	0
496000000.0	0	0	0.4292432963848114	0	0	0	0	0
497000000.0	0	0	0.4292432963848114	0	0	0	0	0
498000000.0	0	0	0.427669495344162	0	0	0	0	0
499000000.0	0	0	0.427669495344162	0	0	0	0	0
500000000.0	0	0	0.4313492178916931	0	0	0	0	0
501000000.0	0	0	0.4313492178916931	0	0	0	0	0
502000000.0	0	0	0.43223443627357483	0	0	0	0	0
503000000.0	0	0	0.43223443627357483	0	0	0	0	0
504000000.0	0	0	0.43071115016937256	0	0	0	0	0
505000000.0	0	0	0.43071115016937256	0	0	0	0	0
506000000.0	0	0	0.4335026443004608	0	0	0	0	0
507000000.0	0	0	0.4335026443004608	0	0	0	0	0
508000000.0	0	0	0.4333011507987976	0	0	0	0	0
509000000.0	0	0	0.4333011507987976	0	0	0	0	0
510000000.0	0	0	0.43270179629325867	0	0	0	0	0
511000000.0	0	0	0.43270179629325867	0	0	0	0	0
512000000.0	0	0	0.43294966220855713	0	0	0	0	0
513000000.0	0	0	0.43294966220855713	0	0	0	0	0
514000000.0	0	0	0.4300093650817871	0	0	0	0	0
515000000.0	0	0	0.4300093650817871	0	0	0	0	0
