!	Parâmetros S - Tag_ID_6 
#	Hz	S	MA	R	50 
!	Freq	magS11	angS11	magS21	angS21	magS12	angS12	magS22	angS22
78000000.0	0	0	0.1225426122546196	0	0	0	0	0
79000000.0	0	0	0.1225426122546196	0	0	0	0	0
80000000.0	0	0	0.12611068785190582	0	0	0	0	0
81000000.0	0	0	0.12611068785190582	0	0	0	0	0
82000000.0	0	0	0.1287059634923935	0	0	0	0	0
83000000.0	0	0	0.1287059634923935	0	0	0	0	0
84000000.0	0	0	0.13504749536514282	0	0	0	0	0
85000000.0	0	0	0.13504749536514282	0	0	0	0	0
86000000.0	0	0	0.14168861508369446	0	0	0	0	0
87000000.0	0	0	0.14168861508369446	0	0	0	0	0
88000000.0	0	0	0.14687123894691467	0	0	0	0	0
89000000.0	0	0	0.14687123894691467	0	0	0	0	0
90000000.0	0	0	0.15227364003658295	0	0	0	0	0
91000000.0	0	0	0.15227364003658295	0	0	0	0	0
92000000.0	0	0	0.15835219621658325	0	0	0	0	0
93000000.0	0	0	0.15835219621658325	0	0	0	0	0
94000000.0	0	0	0.16465851664543152	0	0	0	0	0
95000000.0	0	0	0.16465851664543152	0	0	0	0	0
96000000.0	0	0	0.168864443898201	0	0	0	0	0
97000000.0	0	0	0.168864443898201	0	0	0	0	0
98000000.0	0	0	0.17745058238506317	0	0	0	0	0
99000000.0	0	0	0.17745058238506317	0	0	0	0	0
100000000.0	0	0	0.185739666223526	0	0	0	0	0
101000000.0	0	0	0.185739666223526	0	0	0	0	0
102000000.0	0	0	0.19972190260887146	0	0	0	0	0
103000000.0	0	0	0.19972190260887146	0	0	0	0	0
104000000.0	0	0	0.20699341595172882	0	0	0	0	0
105000000.0	0	0	0.20699341595172882	0	0	0	0	0
106000000.0	0	0	0.2132277935743332	0	0	0	0	0
107000000.0	0	0	0.2132277935743332	0	0	0	0	0
108000000.0	0	0	0.21884331107139587	0	0	0	0	0
109000000.0	0	0	0.21884331107139587	0	0	0	0	0
110000000.0	0	0	0.21959252655506134	0	0	0	0	0
111000000.0	0	0	0.21959252655506134	0	0	0	0	0
112000000.0	0	0	0.22019322216510773	0	0	0	0	0
113000000.0	0	0	0.22019322216510773	0	0	0	0	0
114000000.0	0	0	0.22343148291110992	0	0	0	0	0
115000000.0	0	0	0.22343148291110992	0	0	0	0	0
116000000.0	0	0	0.23026202619075775	0	0	0	0	0
117000000.0	0	0	0.23026202619075775	0	0	0	0	0
118000000.0	0	0	0.23624832928180695	0	0	0	0	0
119000000.0	0	0	0.23624832928180695	0	0	0	0	0
120000000.0	0	0	0.24115876853466034	0	0	0	0	0
121000000.0	0	0	0.24115876853466034	0	0	0	0	0
122000000.0	0	0	0.24454596638679504	0	0	0	0	0
123000000.0	0	0	0.24454596638679504	0	0	0	0	0
124000000.0	0	0	0.24968887865543365	0	0	0	0	0
125000000.0	0	0	0.24968887865543365	0	0	0	0	0
126000000.0	0	0	0.2531242370605469	0	0	0	0	0
127000000.0	0	0	0.2531242370605469	0	0	0	0	0
128000000.0	0	0	0.25368785858154297	0	0	0	0	0
129000000.0	0	0	0.25368785858154297	0	0	0	0	0
130000000.0	0	0	0.25659868121147156	0	0	0	0	0
131000000.0	0	0	0.25659868121147156	0	0	0	0	0
132000000.0	0	0	0.26212719082832336	0	0	0	0	0
133000000.0	0	0	0.26212719082832336	0	0	0	0	0
134000000.0	0	0	0.26693257689476013	0	0	0	0	0
135000000.0	0	0	0.26693257689476013	0	0	0	0	0
136000000.0	0	0	0.2735757827758789	0	0	0	0	0
137000000.0	0	0	0.2735757827758789	0	0	0	0	0
138000000.0	0	0	0.27750128507614136	0	0	0	0	0
139000000.0	0	0	0.27750128507614136	0	0	0	0	0
140000000.0	0	0	0.2810846269130707	0	0	0	0	0
141000000.0	0	0	0.2810846269130707	0	0	0	0	0
142000000.0	0	0	0.2809240221977234	0	0	0	0	0
143000000.0	0	0	0.2809240221977234	0	0	0	0	0
144000000.0	0	0	0.28696271777153015	0	0	0	0	0
145000000.0	0	0	0.28696271777153015	0	0	0	0	0
146000000.0	0	0	0.29116329550743103	0	0	0	0	0
147000000.0	0	0	0.29116329550743103	0	0	0	0	0
148000000.0	0	0	0.29157355427742004	0	0	0	0	0
149000000.0	0	0	0.29157355427742004	0	0	0	0	0
150000000.0	0	0	0.2950679659843445	0	0	0	0	0
151000000.0	0	0	0.2950679659843445	0	0	0	0	0
152000000.0	0	0	0.29946309328079224	0	0	0	0	0
153000000.0	0	0	0.29946309328079224	0	0	0	0	0
154000000.0	0	0	0.29839199781417847	0	0	0	0	0
155000000.0	0	0	0.29839199781417847	0	0	0	0	0
156000000.0	0	0	0.2985036373138428	0	0	0	0	0
157000000.0	0	0	0.2985036373138428	0	0	0	0	0
158000000.0	0	0	0.2993161082267761	0	0	0	0	0
159000000.0	0	0	0.2993161082267761	0	0	0	0	0
160000000.0	0	0	0.2996034622192383	0	0	0	0	0
161000000.0	0	0	0.2996034622192383	0	0	0	0	0
162000000.0	0	0	0.3003259301185608	0	0	0	0	0
163000000.0	0	0	0.3003259301185608	0	0	0	0	0
164000000.0	0	0	0.30213314294815063	0	0	0	0	0
165000000.0	0	0	0.30213314294815063	0	0	0	0	0
166000000.0	0	0	0.3041047751903534	0	0	0	0	0
167000000.0	0	0	0.3041047751903534	0	0	0	0	0
168000000.0	0	0	0.3015495836734772	0	0	0	0	0
169000000.0	0	0	0.3015495836734772	0	0	0	0	0
170000000.0	0	0	0.29898807406425476	0	0	0	0	0
171000000.0	0	0	0.29898807406425476	0	0	0	0	0
172000000.0	0	0	0.2981966435909271	0	0	0	0	0
173000000.0	0	0	0.2981966435909271	0	0	0	0	0
174000000.0	0	0	0.29517972469329834	0	0	0	0	0
175000000.0	0	0	0.29517972469329834	0	0	0	0	0
176000000.0	0	0	0.29660141468048096	0	0	0	0	0
177000000.0	0	0	0.29660141468048096	0	0	0	0	0
178000000.0	0	0	0.2953973412513733	0	0	0	0	0
179000000.0	0	0	0.2953973412513733	0	0	0	0	0
180000000.0	0	0	0.2947482168674469	0	0	0	0	0
181000000.0	0	0	0.2947482168674469	0	0	0	0	0
182000000.0	0	0	0.2942443788051605	0	0	0	0	0
183000000.0	0	0	0.2942443788051605	0	0	0	0	0
184000000.0	0	0	0.2939653992652893	0	0	0	0	0
185000000.0	0	0	0.2939653992652893	0	0	0	0	0
186000000.0	0	0	0.2930297255516052	0	0	0	0	0
187000000.0	0	0	0.2930297255516052	0	0	0	0	0
188000000.0	0	0	0.2916817367076874	0	0	0	0	0
189000000.0	0	0	0.2916817367076874	0	0	0	0	0
190000000.0	0	0	0.292278915643692	0	0	0	0	0
191000000.0	0	0	0.292278915643692	0	0	0	0	0
192000000.0	0	0	0.2939305305480957	0	0	0	0	0
193000000.0	0	0	0.2939305305480957	0	0	0	0	0
194000000.0	0	0	0.296659380197525	0	0	0	0	0
195000000.0	0	0	0.296659380197525	0	0	0	0	0
196000000.0	0	0	0.29931381344795227	0	0	0	0	0
197000000.0	0	0	0.29931381344795227	0	0	0	0	0
198000000.0	0	0	0.30086517333984375	0	0	0	0	0
199000000.0	0	0	0.30086517333984375	0	0	0	0	0
200000000.0	0	0	0.3037077784538269	0	0	0	0	0
201000000.0	0	0	0.3037077784538269	0	0	0	0	0
202000000.0	0	0	0.3044617176055908	0	0	0	0	0
203000000.0	0	0	0.3044617176055908	0	0	0	0	0
204000000.0	0	0	0.30740395188331604	0	0	0	0	0
205000000.0	0	0	0.30740395188331604	0	0	0	0	0
206000000.0	0	0	0.3102019131183624	0	0	0	0	0
207000000.0	0	0	0.3102019131183624	0	0	0	0	0
208000000.0	0	0	0.31270599365234375	0	0	0	0	0
209000000.0	0	0	0.31270599365234375	0	0	0	0	0
210000000.0	0	0	0.3139733076095581	0	0	0	0	0
211000000.0	0	0	0.3139733076095581	0	0	0	0	0
212000000.0	0	0	0.31505605578422546	0	0	0	0	0
213000000.0	0	0	0.31505605578422546	0	0	0	0	0
214000000.0	0	0	0.31535154581069946	0	0	0	0	0
215000000.0	0	0	0.31535154581069946	0	0	0	0	0
216000000.0	0	0	0.3154536187648773	0	0	0	0	0
217000000.0	0	0	0.3154536187648773	0	0	0	0	0
218000000.0	0	0	0.3158217668533325	0	0	0	0	0
219000000.0	0	0	0.3158217668533325	0	0	0	0	0
220000000.0	0	0	0.3142220675945282	0	0	0	0	0
221000000.0	0	0	0.3142220675945282	0	0	0	0	0
222000000.0	0	0	0.31179291009902954	0	0	0	0	0
223000000.0	0	0	0.31179291009902954	0	0	0	0	0
224000000.0	0	0	0.3111925423145294	0	0	0	0	0
225000000.0	0	0	0.3111925423145294	0	0	0	0	0
226000000.0	0	0	0.30985966324806213	0	0	0	0	0
227000000.0	0	0	0.30985966324806213	0	0	0	0	0
228000000.0	0	0	0.30903512239456177	0	0	0	0	0
229000000.0	0	0	0.30903512239456177	0	0	0	0	0
230000000.0	0	0	0.3075328469276428	0	0	0	0	0
231000000.0	0	0	0.3075328469276428	0	0	0	0	0
232000000.0	0	0	0.30630651116371155	0	0	0	0	0
233000000.0	0	0	0.30630651116371155	0	0	0	0	0
234000000.0	0	0	0.30561351776123047	0	0	0	0	0
235000000.0	0	0	0.30561351776123047	0	0	0	0	0
236000000.0	0	0	0.30667588114738464	0	0	0	0	0
237000000.0	0	0	0.30667588114738464	0	0	0	0	0
238000000.0	0	0	0.30736035108566284	0	0	0	0	0
239000000.0	0	0	0.30736035108566284	0	0	0	0	0
240000000.0	0	0	0.3075667917728424	0	0	0	0	0
241000000.0	0	0	0.3075667917728424	0	0	0	0	0
242000000.0	0	0	0.30687740445137024	0	0	0	0	0
243000000.0	0	0	0.30687740445137024	0	0	0	0	0
244000000.0	0	0	0.30354681611061096	0	0	0	0	0
245000000.0	0	0	0.30354681611061096	0	0	0	0	0
246000000.0	0	0	0.3040916621685028	0	0	0	0	0
247000000.0	0	0	0.3040916621685028	0	0	0	0	0
248000000.0	0	0	0.3063923418521881	0	0	0	0	0
249000000.0	0	0	0.3063923418521881	0	0	0	0	0
250000000.0	0	0	0.30548885464668274	0	0	0	0	0
251000000.0	0	0	0.30548885464668274	0	0	0	0	0
252000000.0	0	0	0.30571144819259644	0	0	0	0	0
253000000.0	0	0	0.30571144819259644	0	0	0	0	0
254000000.0	0	0	0.3064209520816803	0	0	0	0	0
255000000.0	0	0	0.3064209520816803	0	0	0	0	0
256000000.0	0	0	0.3075081706047058	0	0	0	0	0
257000000.0	0	0	0.3075081706047058	0	0	0	0	0
258000000.0	0	0	0.3078230321407318	0	0	0	0	0
259000000.0	0	0	0.3078230321407318	0	0	0	0	0
260000000.0	0	0	0.3079700767993927	0	0	0	0	0
261000000.0	0	0	0.3079700767993927	0	0	0	0	0
262000000.0	0	0	0.3095259666442871	0	0	0	0	0
263000000.0	0	0	0.3095259666442871	0	0	0	0	0
264000000.0	0	0	0.3132864832878113	0	0	0	0	0
265000000.0	0	0	0.3132864832878113	0	0	0	0	0
266000000.0	0	0	0.31313905119895935	0	0	0	0	0
267000000.0	0	0	0.31313905119895935	0	0	0	0	0
268000000.0	0	0	0.3161541223526001	0	0	0	0	0
269000000.0	0	0	0.3161541223526001	0	0	0	0	0
270000000.0	0	0	0.3223913908004761	0	0	0	0	0
271000000.0	0	0	0.3223913908004761	0	0	0	0	0
272000000.0	0	0	0.3256840407848358	0	0	0	0	0
273000000.0	0	0	0.3256840407848358	0	0	0	0	0
274000000.0	0	0	0.32750245928764343	0	0	0	0	0
275000000.0	0	0	0.32750245928764343	0	0	0	0	0
276000000.0	0	0	0.3306874632835388	0	0	0	0	0
277000000.0	0	0	0.3306874632835388	0	0	0	0	0
278000000.0	0	0	0.33341893553733826	0	0	0	0	0
279000000.0	0	0	0.33341893553733826	0	0	0	0	0
280000000.0	0	0	0.3351597189903259	0	0	0	0	0
281000000.0	0	0	0.3351597189903259	0	0	0	0	0
282000000.0	0	0	0.33829060196876526	0	0	0	0	0
283000000.0	0	0	0.33829060196876526	0	0	0	0	0
284000000.0	0	0	0.33872127532958984	0	0	0	0	0
285000000.0	0	0	0.33872127532958984	0	0	0	0	0
286000000.0	0	0	0.33902809023857117	0	0	0	0	0
287000000.0	0	0	0.33902809023857117	0	0	0	0	0
288000000.0	0	0	0.33552953600883484	0	0	0	0	0
289000000.0	0	0	0.33552953600883484	0	0	0	0	0
290000000.0	0	0	0.3382652997970581	0	0	0	0	0
291000000.0	0	0	0.3382652997970581	0	0	0	0	0
292000000.0	0	0	0.33876892924308777	0	0	0	0	0
293000000.0	0	0	0.33876892924308777	0	0	0	0	0
294000000.0	0	0	0.3359640836715698	0	0	0	0	0
295000000.0	0	0	0.3359640836715698	0	0	0	0	0
296000000.0	0	0	0.3320492208003998	0	0	0	0	0
297000000.0	0	0	0.3320492208003998	0	0	0	0	0
298000000.0	0	0	0.3370210826396942	0	0	0	0	0
299000000.0	0	0	0.3370210826396942	0	0	0	0	0
300000000.0	0	0	0.33399203419685364	0	0	0	0	0
301000000.0	0	0	0.33399203419685364	0	0	0	0	0
302000000.0	0	0	0.33323854207992554	0	0	0	0	0
303000000.0	0	0	0.33323854207992554	0	0	0	0	0
304000000.0	0	0	0.3340631425380707	0	0	0	0	0
305000000.0	0	0	0.3340631425380707	0	0	0	0	0
306000000.0	0	0	0.33151623606681824	0	0	0	0	0
307000000.0	0	0	0.33151623606681824	0	0	0	0	0
308000000.0	0	0	0.3299160599708557	0	0	0	0	0
309000000.0	0	0	0.3299160599708557	0	0	0	0	0
310000000.0	0	0	0.32874947786331177	0	0	0	0	0
311000000.0	0	0	0.32874947786331177	0	0	0	0	0
312000000.0	0	0	0.32766085863113403	0	0	0	0	0
313000000.0	0	0	0.32766085863113403	0	0	0	0	0
314000000.0	0	0	0.328340619802475	0	0	0	0	0
315000000.0	0	0	0.328340619802475	0	0	0	0	0
316000000.0	0	0	0.33188506960868835	0	0	0	0	0
317000000.0	0	0	0.33188506960868835	0	0	0	0	0
318000000.0	0	0	0.33059659600257874	0	0	0	0	0
319000000.0	0	0	0.33059659600257874	0	0	0	0	0
320000000.0	0	0	0.3368363082408905	0	0	0	0	0
321000000.0	0	0	0.3368363082408905	0	0	0	0	0
322000000.0	0	0	0.3408382833003998	0	0	0	0	0
323000000.0	0	0	0.3408382833003998	0	0	0	0	0
324000000.0	0	0	0.3410046100616455	0	0	0	0	0
325000000.0	0	0	0.3410046100616455	0	0	0	0	0
326000000.0	0	0	0.34621232748031616	0	0	0	0	0
327000000.0	0	0	0.34621232748031616	0	0	0	0	0
328000000.0	0	0	0.34829869866371155	0	0	0	0	0
329000000.0	0	0	0.34829869866371155	0	0	0	0	0
330000000.0	0	0	0.3481590151786804	0	0	0	0	0
331000000.0	0	0	0.3481590151786804	0	0	0	0	0
332000000.0	0	0	0.35034725069999695	0	0	0	0	0
333000000.0	0	0	0.35034725069999695	0	0	0	0	0
334000000.0	0	0	0.35326021909713745	0	0	0	0	0
335000000.0	0	0	0.35326021909713745	0	0	0	0	0
336000000.0	0	0	0.3572375774383545	0	0	0	0	0
337000000.0	0	0	0.3572375774383545	0	0	0	0	0
338000000.0	0	0	0.35884326696395874	0	0	0	0	0
339000000.0	0	0	0.35884326696395874	0	0	0	0	0
340000000.0	0	0	0.35944101214408875	0	0	0	0	0
341000000.0	0	0	0.35944101214408875	0	0	0	0	0
342000000.0	0	0	0.36055517196655273	0	0	0	0	0
343000000.0	0	0	0.36055517196655273	0	0	0	0	0
344000000.0	0	0	0.36326417326927185	0	0	0	0	0
345000000.0	0	0	0.36326417326927185	0	0	0	0	0
346000000.0	0	0	0.35600733757019043	0	0	0	0	0
347000000.0	0	0	0.35600733757019043	0	0	0	0	0
348000000.0	0	0	0.3585410416126251	0	0	0	0	0
349000000.0	0	0	0.3585410416126251	0	0	0	0	0
350000000.0	0	0	0.3600839376449585	0	0	0	0	0
351000000.0	0	0	0.3600839376449585	0	0	0	0	0
352000000.0	0	0	0.3557704985141754	0	0	0	0	0
353000000.0	0	0	0.3557704985141754	0	0	0	0	0
354000000.0	0	0	0.35570457577705383	0	0	0	0	0
355000000.0	0	0	0.35570457577705383	0	0	0	0	0
356000000.0	0	0	0.35024788975715637	0	0	0	0	0
357000000.0	0	0	0.35024788975715637	0	0	0	0	0
358000000.0	0	0	0.35252511501312256	0	0	0	0	0
359000000.0	0	0	0.35252511501312256	0	0	0	0	0
360000000.0	0	0	0.35370221734046936	0	0	0	0	0
361000000.0	0	0	0.35370221734046936	0	0	0	0	0
362000000.0	0	0	0.3530293405056	0	0	0	0	0
363000000.0	0	0	0.3530293405056	0	0	0	0	0
364000000.0	0	0	0.35875803232192993	0	0	0	0	0
365000000.0	0	0	0.35875803232192993	0	0	0	0	0
366000000.0	0	0	0.36043331027030945	0	0	0	0	0
367000000.0	0	0	0.36043331027030945	0	0	0	0	0
368000000.0	0	0	0.3607466220855713	0	0	0	0	0
369000000.0	0	0	0.3607466220855713	0	0	0	0	0
370000000.0	0	0	0.3646533787250519	0	0	0	0	0
371000000.0	0	0	0.3646533787250519	0	0	0	0	0
372000000.0	0	0	0.3600108027458191	0	0	0	0	0
373000000.0	0	0	0.3600108027458191	0	0	0	0	0
374000000.0	0	0	0.3587929606437683	0	0	0	0	0
375000000.0	0	0	0.3587929606437683	0	0	0	0	0
376000000.0	0	0	0.3643980622291565	0	0	0	0	0
377000000.0	0	0	0.3643980622291565	0	0	0	0	0
378000000.0	0	0	0.36621949076652527	0	0	0	0	0
379000000.0	0	0	0.36621949076652527	0	0	0	0	0
380000000.0	0	0	0.37009304761886597	0	0	0	0	0
381000000.0	0	0	0.37009304761886597	0	0	0	0	0
382000000.0	0	0	0.3718275725841522	0	0	0	0	0
383000000.0	0	0	0.3718275725841522	0	0	0	0	0
384000000.0	0	0	0.3728838264942169	0	0	0	0	0
385000000.0	0	0	0.3728838264942169	0	0	0	0	0
386000000.0	0	0	0.374481737613678	0	0	0	0	0
387000000.0	0	0	0.374481737613678	0	0	0	0	0
388000000.0	0	0	0.3755844831466675	0	0	0	0	0
389000000.0	0	0	0.3755844831466675	0	0	0	0	0
390000000.0	0	0	0.37483835220336914	0	0	0	0	0
391000000.0	0	0	0.37483835220336914	0	0	0	0	0
392000000.0	0	0	0.37641096115112305	0	0	0	0	0
393000000.0	0	0	0.37641096115112305	0	0	0	0	0
394000000.0	0	0	0.3757629990577698	0	0	0	0	0
395000000.0	0	0	0.3757629990577698	0	0	0	0	0
396000000.0	0	0	0.3796185553073883	0	0	0	0	0
397000000.0	0	0	0.3796185553073883	0	0	0	0	0
398000000.0	0	0	0.38141709566116333	0	0	0	0	0
399000000.0	0	0	0.38141709566116333	0	0	0	0	0
400000000.0	0	0	0.3798840641975403	0	0	0	0	0
401000000.0	0	0	0.3798840641975403	0	0	0	0	0
402000000.0	0	0	0.38234943151474	0	0	0	0	0
403000000.0	0	0	0.38234943151474	0	0	0	0	0
404000000.0	0	0	0.38537365198135376	0	0	0	0	0
405000000.0	0	0	0.38537365198135376	0	0	0	0	0
406000000.0	0	0	0.38688457012176514	0	0	0	0	0
407000000.0	0	0	0.38688457012176514	0	0	0	0	0
408000000.0	0	0	0.3856699764728546	0	0	0	0	0
409000000.0	0	0	0.3856699764728546	0	0	0	0	0
410000000.0	0	0	0.3882313668727875	0	0	0	0	0
411000000.0	0	0	0.3882313668727875	0	0	0	0	0
412000000.0	0	0	0.38612014055252075	0	0	0	0	0
413000000.0	0	0	0.38612014055252075	0	0	0	0	0
414000000.0	0	0	0.38738465309143066	0	0	0	0	0
415000000.0	0	0	0.38738465309143066	0	0	0	0	0
416000000.0	0	0	0.3885146379470825	0	0	0	0	0
417000000.0	0	0	0.3885146379470825	0	0	0	0	0
418000000.0	0	0	0.39086779952049255	0	0	0	0	0
419000000.0	0	0	0.39086779952049255	0	0	0	0	0
420000000.0	0	0	0.3912844955921173	0	0	0	0	0
421000000.0	0	0	0.3912844955921173	0	0	0	0	0
422000000.0	0	0	0.3903294801712036	0	0	0	0	0
423000000.0	0	0	0.3903294801712036	0	0	0	0	0
424000000.0	0	0	0.3921636939048767	0	0	0	0	0
425000000.0	0	0	0.3921636939048767	0	0	0	0	0
426000000.0	0	0	0.3879244923591614	0	0	0	0	0
427000000.0	0	0	0.3879244923591614	0	0	0	0	0
428000000.0	0	0	0.3893272280693054	0	0	0	0	0
429000000.0	0	0	0.3893272280693054	0	0	0	0	0
430000000.0	0	0	0.38910144567489624	0	0	0	0	0
431000000.0	0	0	0.38910144567489624	0	0	0	0	0
432000000.0	0	0	0.38905781507492065	0	0	0	0	0
433000000.0	0	0	0.38905781507492065	0	0	0	0	0
434000000.0	0	0	0.3910345137119293	0	0	0	0	0
435000000.0	0	0	0.3910345137119293	0	0	0	0	0
436000000.0	0	0	0.3903384208679199	0	0	0	0	0
437000000.0	0	0	0.3903384208679199	0	0	0	0	0
438000000.0	0	0	0.39183929562568665	0	0	0	0	0
439000000.0	0	0	0.39183929562568665	0	0	0	0	0
440000000.0	0	0	0.38866448402404785	0	0	0	0	0
441000000.0	0	0	0.38866448402404785	0	0	0	0	0
442000000.0	0	0	0.3883717954158783	0	0	0	0	0
443000000.0	0	0	0.3883717954158783	0	0	0	0	0
444000000.0	0	0	0.3876151740550995	0	0	0	0	0
445000000.0	0	0	0.3876151740550995	0	0	0	0	0
446000000.0	0	0	0.3884885013103485	0	0	0	0	0
447000000.0	0	0	0.3884885013103485	0	0	0	0	0
448000000.0	0	0	0.38928869366645813	0	0	0	0	0
449000000.0	0	0	0.38928869366645813	0	0	0	0	0
450000000.0	0	0	0.38538357615470886	0	0	0	0	0
451000000.0	0	0	0.38538357615470886	0	0	0	0	0
452000000.0	0	0	0.38923320174217224	0	0	0	0	0
453000000.0	0	0	0.38923320174217224	0	0	0	0	0
454000000.0	0	0	0.3896022140979767	0	0	0	0	0
455000000.0	0	0	0.3896022140979767	0	0	0	0	0
456000000.0	0	0	0.3928423821926117	0	0	0	0	0
457000000.0	0	0	0.3928423821926117	0	0	0	0	0
458000000.0	0	0	0.39290663599967957	0	0	0	0	0
459000000.0	0	0	0.39290663599967957	0	0	0	0	0
460000000.0	0	0	0.39416471123695374	0	0	0	0	0
461000000.0	0	0	0.39416471123695374	0	0	0	0	0
462000000.0	0	0	0.3952025771141052	0	0	0	0	0
463000000.0	0	0	0.3952025771141052	0	0	0	0	0
464000000.0	0	0	0.39572951197624207	0	0	0	0	0
465000000.0	0	0	0.39572951197624207	0	0	0	0	0
466000000.0	0	0	0.3944222033023834	0	0	0	0	0
467000000.0	0	0	0.3944222033023834	0	0	0	0	0
468000000.0	0	0	0.3959498703479767	0	0	0	0	0
469000000.0	0	0	0.3959498703479767	0	0	0	0	0
470000000.0	0	0	0.4025178551673889	0	0	0	0	0
471000000.0	0	0	0.4025178551673889	0	0	0	0	0
472000000.0	0	0	0.4035413861274719	0	0	0	0	0
473000000.0	0	0	0.4035413861274719	0	0	0	0	0
474000000.0	0	0	0.4058986306190491	0	0	0	0	0
475000000.0	0	0	0.4058986306190491	0	0	0	0	0
476000000.0	0	0	0.40431103110313416	0	0	0	0	0
477000000.0	0	0	0.40431103110313416	0	0	0	0	0
478000000.0	0	0	0.4051152169704437	0	0	0	0	0
479000000.0	0	0	0.4051152169704437	0	0	0	0	0
480000000.0	0	0	0.39988845586776733	0	0	0	0	0
481000000.0	0	0	0.39988845586776733	0	0	0	0	0
482000000.0	0	0	0.3971850574016571	0	0	0	0	0
483000000.0	0	0	0.3971850574016571	0	0	0	0	0
484000000.0	0	0	0.39827072620391846	0	0	0	0	0
485000000.0	0	0	0.39827072620391846	0	0	0	0	0
486000000.0	0	0	0.3945983052253723	0	0	0	0	0
487000000.0	0	0	0.3945983052253723	0	0	0	0	0
488000000.0	0	0	0.3987446427345276	0	0	0	0	0
489000000.0	0	0	0.3987446427345276	0	0	0	0	0
490000000.0	0	0	0.3989909589290619	0	0	0	0	0
491000000.0	0	0	0.3989909589290619	0	0	0	0	0
492000000.0	0	0	0.3971743583679199	0	0	0	0	0
493000000.0	0	0	0.3971743583679199	0	0	0	0	0
494000000.0	0	0	0.3964681625366211	0	0	0	0	0
495000000.0	0	0	0.3964681625366211	0	0	0	0	0
496000000.0	0	0	0.3966892957687378	0	0	0	0	0
497000000.0	0	0	0.3966892957687378	0	0	0	0	0
498000000.0	0	0	0.3971739411354065	0	0	0	0	0
499000000.0	0	0	0.3971739411354065	0	0	0	0	0
500000000.0	0	0	0.3949604630470276	0	0	0	0	0
501000000.0	0	0	0.3949604630470276	0	0	0	0	0
502000000.0	0	0	0.3960464596748352	0	0	0	0	0
503000000.0	0	0	0.3960464596748352	0	0	0	0	0
504000000.0	0	0	0.40228694677352905	0	0	0	0	0
505000000.0	0	0	0.40228694677352905	0	0	0	0	0
506000000.0	0	0	0.4052627980709076	0	0	0	0	0
507000000.0	0	0	0.4052627980709076	0	0	0	0	0
508000000.0	0	0	0.40705230832099915	0	0	0	0	0
509000000.0	0	0	0.40705230832099915	0	0	0	0	0
510000000.0	0	0	0.41075292229652405	0	0	0	0	0
511000000.0	0	0	0.41075292229652405	0	0	0	0	0
512000000.0	0	0	0.4114049971103668	0	0	0	0	0
513000000.0	0	0	0.4114049971103668	0	0	0	0	0
514000000.0	0	0	0.41365787386894226	0	0	0	0	0
515000000.0	0	0	0.41365787386894226	0	0	0	0	0
