!	Parâmetros S - Tag_ID_5 
#	Hz	S	MA	R	50 
!	Freq	magS11	angS11	magS21	angS21	magS12	angS12	magS22	angS22
78000000.0	0	0	0.17606337368488312	0	0	0	0	0
79000000.0	0	0	0.17606337368488312	0	0	0	0	0
80000000.0	0	0	0.17639292776584625	0	0	0	0	0
81000000.0	0	0	0.17639292776584625	0	0	0	0	0
82000000.0	0	0	0.1760328710079193	0	0	0	0	0
83000000.0	0	0	0.1760328710079193	0	0	0	0	0
84000000.0	0	0	0.1771935522556305	0	0	0	0	0
85000000.0	0	0	0.1771935522556305	0	0	0	0	0
86000000.0	0	0	0.18064571917057037	0	0	0	0	0
87000000.0	0	0	0.18064571917057037	0	0	0	0	0
88000000.0	0	0	0.1819496601819992	0	0	0	0	0
89000000.0	0	0	0.1819496601819992	0	0	0	0	0
90000000.0	0	0	0.18425406515598297	0	0	0	0	0
91000000.0	0	0	0.18425406515598297	0	0	0	0	0
92000000.0	0	0	0.18682827055454254	0	0	0	0	0
93000000.0	0	0	0.18682827055454254	0	0	0	0	0
94000000.0	0	0	0.18509933352470398	0	0	0	0	0
95000000.0	0	0	0.18509933352470398	0	0	0	0	0
96000000.0	0	0	0.18658718466758728	0	0	0	0	0
97000000.0	0	0	0.18658718466758728	0	0	0	0	0
98000000.0	0	0	0.19026723504066467	0	0	0	0	0
99000000.0	0	0	0.19026723504066467	0	0	0	0	0
100000000.0	0	0	0.1918756365776062	0	0	0	0	0
101000000.0	0	0	0.1918756365776062	0	0	0	0	0
102000000.0	0	0	0.19357337057590485	0	0	0	0	0
103000000.0	0	0	0.19357337057590485	0	0	0	0	0
104000000.0	0	0	0.19759176671504974	0	0	0	0	0
105000000.0	0	0	0.19759176671504974	0	0	0	0	0
106000000.0	0	0	0.1977117657661438	0	0	0	0	0
107000000.0	0	0	0.1977117657661438	0	0	0	0	0
108000000.0	0	0	0.20022831857204437	0	0	0	0	0
109000000.0	0	0	0.20022831857204437	0	0	0	0	0
110000000.0	0	0	0.20297257602214813	0	0	0	0	0
111000000.0	0	0	0.20297257602214813	0	0	0	0	0
112000000.0	0	0	0.2054622769355774	0	0	0	0	0
113000000.0	0	0	0.2054622769355774	0	0	0	0	0
114000000.0	0	0	0.20888018608093262	0	0	0	0	0
115000000.0	0	0	0.20888018608093262	0	0	0	0	0
116000000.0	0	0	0.21179614961147308	0	0	0	0	0
117000000.0	0	0	0.21179614961147308	0	0	0	0	0
118000000.0	0	0	0.21650852262973785	0	0	0	0	0
119000000.0	0	0	0.21650852262973785	0	0	0	0	0
120000000.0	0	0	0.22162871062755585	0	0	0	0	0
121000000.0	0	0	0.22162871062755585	0	0	0	0	0
122000000.0	0	0	0.22368992865085602	0	0	0	0	0
123000000.0	0	0	0.22368992865085602	0	0	0	0	0
124000000.0	0	0	0.22856314480304718	0	0	0	0	0
125000000.0	0	0	0.22856314480304718	0	0	0	0	0
126000000.0	0	0	0.23302839696407318	0	0	0	0	0
127000000.0	0	0	0.23302839696407318	0	0	0	0	0
128000000.0	0	0	0.24051865935325623	0	0	0	0	0
129000000.0	0	0	0.24051865935325623	0	0	0	0	0
130000000.0	0	0	0.24485132098197937	0	0	0	0	0
131000000.0	0	0	0.24485132098197937	0	0	0	0	0
132000000.0	0	0	0.25228404998779297	0	0	0	0	0
133000000.0	0	0	0.25228404998779297	0	0	0	0	0
134000000.0	0	0	0.2582915723323822	0	0	0	0	0
135000000.0	0	0	0.2582915723323822	0	0	0	0	0
136000000.0	0	0	0.2626723051071167	0	0	0	0	0
137000000.0	0	0	0.2626723051071167	0	0	0	0	0
138000000.0	0	0	0.26503896713256836	0	0	0	0	0
139000000.0	0	0	0.26503896713256836	0	0	0	0	0
140000000.0	0	0	0.2681174576282501	0	0	0	0	0
141000000.0	0	0	0.2681174576282501	0	0	0	0	0
142000000.0	0	0	0.2740786075592041	0	0	0	0	0
143000000.0	0	0	0.2740786075592041	0	0	0	0	0
144000000.0	0	0	0.2754684090614319	0	0	0	0	0
145000000.0	0	0	0.2754684090614319	0	0	0	0	0
146000000.0	0	0	0.28103986382484436	0	0	0	0	0
147000000.0	0	0	0.28103986382484436	0	0	0	0	0
148000000.0	0	0	0.28603801131248474	0	0	0	0	0
149000000.0	0	0	0.28603801131248474	0	0	0	0	0
150000000.0	0	0	0.2891630530357361	0	0	0	0	0
151000000.0	0	0	0.2891630530357361	0	0	0	0	0
152000000.0	0	0	0.29277682304382324	0	0	0	0	0
153000000.0	0	0	0.29277682304382324	0	0	0	0	0
154000000.0	0	0	0.29728734493255615	0	0	0	0	0
155000000.0	0	0	0.29728734493255615	0	0	0	0	0
156000000.0	0	0	0.2996271848678589	0	0	0	0	0
157000000.0	0	0	0.2996271848678589	0	0	0	0	0
158000000.0	0	0	0.30131039023399353	0	0	0	0	0
159000000.0	0	0	0.30131039023399353	0	0	0	0	0
160000000.0	0	0	0.30302533507347107	0	0	0	0	0
161000000.0	0	0	0.30302533507347107	0	0	0	0	0
162000000.0	0	0	0.304045706987381	0	0	0	0	0
163000000.0	0	0	0.304045706987381	0	0	0	0	0
164000000.0	0	0	0.3068479299545288	0	0	0	0	0
165000000.0	0	0	0.3068479299545288	0	0	0	0	0
166000000.0	0	0	0.3091541826725006	0	0	0	0	0
167000000.0	0	0	0.3091541826725006	0	0	0	0	0
168000000.0	0	0	0.30984070897102356	0	0	0	0	0
169000000.0	0	0	0.30984070897102356	0	0	0	0	0
170000000.0	0	0	0.3121812343597412	0	0	0	0	0
171000000.0	0	0	0.3121812343597412	0	0	0	0	0
172000000.0	0	0	0.3104323148727417	0	0	0	0	0
173000000.0	0	0	0.3104323148727417	0	0	0	0	0
174000000.0	0	0	0.31018897891044617	0	0	0	0	0
175000000.0	0	0	0.31018897891044617	0	0	0	0	0
176000000.0	0	0	0.3087221384048462	0	0	0	0	0
177000000.0	0	0	0.3087221384048462	0	0	0	0	0
178000000.0	0	0	0.30761656165122986	0	0	0	0	0
179000000.0	0	0	0.30761656165122986	0	0	0	0	0
180000000.0	0	0	0.30634644627571106	0	0	0	0	0
181000000.0	0	0	0.30634644627571106	0	0	0	0	0
182000000.0	0	0	0.3048354983329773	0	0	0	0	0
183000000.0	0	0	0.3048354983329773	0	0	0	0	0
184000000.0	0	0	0.3041609227657318	0	0	0	0	0
185000000.0	0	0	0.3041609227657318	0	0	0	0	0
186000000.0	0	0	0.30540087819099426	0	0	0	0	0
187000000.0	0	0	0.30540087819099426	0	0	0	0	0
188000000.0	0	0	0.3053225874900818	0	0	0	0	0
189000000.0	0	0	0.3053225874900818	0	0	0	0	0
190000000.0	0	0	0.3062856197357178	0	0	0	0	0
191000000.0	0	0	0.3062856197357178	0	0	0	0	0
192000000.0	0	0	0.3061319589614868	0	0	0	0	0
193000000.0	0	0	0.3061319589614868	0	0	0	0	0
194000000.0	0	0	0.3069462180137634	0	0	0	0	0
195000000.0	0	0	0.3069462180137634	0	0	0	0	0
196000000.0	0	0	0.30818498134613037	0	0	0	0	0
197000000.0	0	0	0.30818498134613037	0	0	0	0	0
198000000.0	0	0	0.31068095564842224	0	0	0	0	0
199000000.0	0	0	0.31068095564842224	0	0	0	0	0
200000000.0	0	0	0.31092897057533264	0	0	0	0	0
201000000.0	0	0	0.31092897057533264	0	0	0	0	0
202000000.0	0	0	0.3125898241996765	0	0	0	0	0
203000000.0	0	0	0.3125898241996765	0	0	0	0	0
204000000.0	0	0	0.3133678138256073	0	0	0	0	0
205000000.0	0	0	0.3133678138256073	0	0	0	0	0
206000000.0	0	0	0.3149723410606384	0	0	0	0	0
207000000.0	0	0	0.3149723410606384	0	0	0	0	0
208000000.0	0	0	0.31467241048812866	0	0	0	0	0
209000000.0	0	0	0.31467241048812866	0	0	0	0	0
210000000.0	0	0	0.31614241003990173	0	0	0	0	0
211000000.0	0	0	0.31614241003990173	0	0	0	0	0
212000000.0	0	0	0.3168858587741852	0	0	0	0	0
213000000.0	0	0	0.3168858587741852	0	0	0	0	0
214000000.0	0	0	0.3169291317462921	0	0	0	0	0
215000000.0	0	0	0.3169291317462921	0	0	0	0	0
216000000.0	0	0	0.3162688910961151	0	0	0	0	0
217000000.0	0	0	0.3162688910961151	0	0	0	0	0
218000000.0	0	0	0.31637683510780334	0	0	0	0	0
219000000.0	0	0	0.31637683510780334	0	0	0	0	0
220000000.0	0	0	0.31613972783088684	0	0	0	0	0
221000000.0	0	0	0.31613972783088684	0	0	0	0	0
222000000.0	0	0	0.3129778206348419	0	0	0	0	0
223000000.0	0	0	0.3129778206348419	0	0	0	0	0
224000000.0	0	0	0.3087616264820099	0	0	0	0	0
225000000.0	0	0	0.3087616264820099	0	0	0	0	0
226000000.0	0	0	0.30928799510002136	0	0	0	0	0
227000000.0	0	0	0.30928799510002136	0	0	0	0	0
228000000.0	0	0	0.3077080249786377	0	0	0	0	0
229000000.0	0	0	0.3077080249786377	0	0	0	0	0
230000000.0	0	0	0.3056202232837677	0	0	0	0	0
231000000.0	0	0	0.3056202232837677	0	0	0	0	0
232000000.0	0	0	0.30637046694755554	0	0	0	0	0
233000000.0	0	0	0.30637046694755554	0	0	0	0	0
234000000.0	0	0	0.3068627715110779	0	0	0	0	0
235000000.0	0	0	0.3068627715110779	0	0	0	0	0
236000000.0	0	0	0.3036167323589325	0	0	0	0	0
237000000.0	0	0	0.3036167323589325	0	0	0	0	0
238000000.0	0	0	0.3056351840496063	0	0	0	0	0
239000000.0	0	0	0.3056351840496063	0	0	0	0	0
240000000.0	0	0	0.3059198558330536	0	0	0	0	0
241000000.0	0	0	0.3059198558330536	0	0	0	0	0
242000000.0	0	0	0.30575424432754517	0	0	0	0	0
243000000.0	0	0	0.30575424432754517	0	0	0	0	0
244000000.0	0	0	0.3058054447174072	0	0	0	0	0
245000000.0	0	0	0.3058054447174072	0	0	0	0	0
246000000.0	0	0	0.30655595660209656	0	0	0	0	0
247000000.0	0	0	0.30655595660209656	0	0	0	0	0
248000000.0	0	0	0.30851107835769653	0	0	0	0	0
249000000.0	0	0	0.30851107835769653	0	0	0	0	0
250000000.0	0	0	0.3134566843509674	0	0	0	0	0
251000000.0	0	0	0.3134566843509674	0	0	0	0	0
252000000.0	0	0	0.3145667612552643	0	0	0	0	0
253000000.0	0	0	0.3145667612552643	0	0	0	0	0
254000000.0	0	0	0.31563371419906616	0	0	0	0	0
255000000.0	0	0	0.31563371419906616	0	0	0	0	0
256000000.0	0	0	0.3165064752101898	0	0	0	0	0
257000000.0	0	0	0.3165064752101898	0	0	0	0	0
258000000.0	0	0	0.3193138837814331	0	0	0	0	0
259000000.0	0	0	0.3193138837814331	0	0	0	0	0
260000000.0	0	0	0.31789901852607727	0	0	0	0	0
261000000.0	0	0	0.31789901852607727	0	0	0	0	0
262000000.0	0	0	0.32124003767967224	0	0	0	0	0
263000000.0	0	0	0.32124003767967224	0	0	0	0	0
264000000.0	0	0	0.32111215591430664	0	0	0	0	0
265000000.0	0	0	0.32111215591430664	0	0	0	0	0
266000000.0	0	0	0.3245672881603241	0	0	0	0	0
267000000.0	0	0	0.3245672881603241	0	0	0	0	0
268000000.0	0	0	0.3237290680408478	0	0	0	0	0
269000000.0	0	0	0.3237290680408478	0	0	0	0	0
270000000.0	0	0	0.3226320147514343	0	0	0	0	0
271000000.0	0	0	0.3226320147514343	0	0	0	0	0
272000000.0	0	0	0.3249334692955017	0	0	0	0	0
273000000.0	0	0	0.3249334692955017	0	0	0	0	0
274000000.0	0	0	0.3249036967754364	0	0	0	0	0
275000000.0	0	0	0.3249036967754364	0	0	0	0	0
276000000.0	0	0	0.3260010778903961	0	0	0	0	0
277000000.0	0	0	0.3260010778903961	0	0	0	0	0
278000000.0	0	0	0.32942643761634827	0	0	0	0	0
279000000.0	0	0	0.32942643761634827	0	0	0	0	0
280000000.0	0	0	0.3303321301937103	0	0	0	0	0
281000000.0	0	0	0.3303321301937103	0	0	0	0	0
282000000.0	0	0	0.3324919044971466	0	0	0	0	0
283000000.0	0	0	0.3324919044971466	0	0	0	0	0
284000000.0	0	0	0.3358584940433502	0	0	0	0	0
285000000.0	0	0	0.3358584940433502	0	0	0	0	0
286000000.0	0	0	0.33719301223754883	0	0	0	0	0
287000000.0	0	0	0.33719301223754883	0	0	0	0	0
288000000.0	0	0	0.33872655034065247	0	0	0	0	0
289000000.0	0	0	0.33872655034065247	0	0	0	0	0
290000000.0	0	0	0.3395910859107971	0	0	0	0	0
291000000.0	0	0	0.3395910859107971	0	0	0	0	0
292000000.0	0	0	0.3405410945415497	0	0	0	0	0
293000000.0	0	0	0.3405410945415497	0	0	0	0	0
294000000.0	0	0	0.34743183851242065	0	0	0	0	0
295000000.0	0	0	0.34743183851242065	0	0	0	0	0
296000000.0	0	0	0.34682968258857727	0	0	0	0	0
297000000.0	0	0	0.34682968258857727	0	0	0	0	0
298000000.0	0	0	0.34590715169906616	0	0	0	0	0
299000000.0	0	0	0.34590715169906616	0	0	0	0	0
300000000.0	0	0	0.35005033016204834	0	0	0	0	0
301000000.0	0	0	0.35005033016204834	0	0	0	0	0
302000000.0	0	0	0.3510271906852722	0	0	0	0	0
303000000.0	0	0	0.3510271906852722	0	0	0	0	0
304000000.0	0	0	0.35155829787254333	0	0	0	0	0
305000000.0	0	0	0.35155829787254333	0	0	0	0	0
306000000.0	0	0	0.34848272800445557	0	0	0	0	0
307000000.0	0	0	0.34848272800445557	0	0	0	0	0
308000000.0	0	0	0.3487365245819092	0	0	0	0	0
309000000.0	0	0	0.3487365245819092	0	0	0	0	0
310000000.0	0	0	0.3491259217262268	0	0	0	0	0
311000000.0	0	0	0.3491259217262268	0	0	0	0	0
312000000.0	0	0	0.3494178354740143	0	0	0	0	0
313000000.0	0	0	0.3494178354740143	0	0	0	0	0
314000000.0	0	0	0.3486734628677368	0	0	0	0	0
315000000.0	0	0	0.3486734628677368	0	0	0	0	0
316000000.0	0	0	0.3491901159286499	0	0	0	0	0
317000000.0	0	0	0.3491901159286499	0	0	0	0	0
318000000.0	0	0	0.34831011295318604	0	0	0	0	0
319000000.0	0	0	0.34831011295318604	0	0	0	0	0
320000000.0	0	0	0.3523567020893097	0	0	0	0	0
321000000.0	0	0	0.3523567020893097	0	0	0	0	0
322000000.0	0	0	0.35424163937568665	0	0	0	0	0
323000000.0	0	0	0.35424163937568665	0	0	0	0	0
324000000.0	0	0	0.35494694113731384	0	0	0	0	0
325000000.0	0	0	0.35494694113731384	0	0	0	0	0
326000000.0	0	0	0.3559371531009674	0	0	0	0	0
327000000.0	0	0	0.3559371531009674	0	0	0	0	0
328000000.0	0	0	0.35636812448501587	0	0	0	0	0
329000000.0	0	0	0.35636812448501587	0	0	0	0	0
330000000.0	0	0	0.35703611373901367	0	0	0	0	0
331000000.0	0	0	0.35703611373901367	0	0	0	0	0
332000000.0	0	0	0.362240731716156	0	0	0	0	0
333000000.0	0	0	0.362240731716156	0	0	0	0	0
334000000.0	0	0	0.36247074604034424	0	0	0	0	0
335000000.0	0	0	0.36247074604034424	0	0	0	0	0
336000000.0	0	0	0.3637359142303467	0	0	0	0	0
337000000.0	0	0	0.3637359142303467	0	0	0	0	0
338000000.0	0	0	0.3693925738334656	0	0	0	0	0
339000000.0	0	0	0.3693925738334656	0	0	0	0	0
340000000.0	0	0	0.37057265639305115	0	0	0	0	0
341000000.0	0	0	0.37057265639305115	0	0	0	0	0
342000000.0	0	0	0.3711550235748291	0	0	0	0	0
343000000.0	0	0	0.3711550235748291	0	0	0	0	0
344000000.0	0	0	0.3725126087665558	0	0	0	0	0
345000000.0	0	0	0.3725126087665558	0	0	0	0	0
346000000.0	0	0	0.36914610862731934	0	0	0	0	0
347000000.0	0	0	0.36914610862731934	0	0	0	0	0
348000000.0	0	0	0.37026068568229675	0	0	0	0	0
349000000.0	0	0	0.37026068568229675	0	0	0	0	0
350000000.0	0	0	0.372020959854126	0	0	0	0	0
351000000.0	0	0	0.372020959854126	0	0	0	0	0
352000000.0	0	0	0.3736562430858612	0	0	0	0	0
353000000.0	0	0	0.3736562430858612	0	0	0	0	0
354000000.0	0	0	0.371644526720047	0	0	0	0	0
355000000.0	0	0	0.371644526720047	0	0	0	0	0
356000000.0	0	0	0.3677803874015808	0	0	0	0	0
357000000.0	0	0	0.3677803874015808	0	0	0	0	0
358000000.0	0	0	0.367514431476593	0	0	0	0	0
359000000.0	0	0	0.367514431476593	0	0	0	0	0
360000000.0	0	0	0.37134015560150146	0	0	0	0	0
361000000.0	0	0	0.37134015560150146	0	0	0	0	0
362000000.0	0	0	0.3679720461368561	0	0	0	0	0
363000000.0	0	0	0.3679720461368561	0	0	0	0	0
364000000.0	0	0	0.368070513010025	0	0	0	0	0
365000000.0	0	0	0.368070513010025	0	0	0	0	0
366000000.0	0	0	0.3612840473651886	0	0	0	0	0
367000000.0	0	0	0.3612840473651886	0	0	0	0	0
368000000.0	0	0	0.36451730132102966	0	0	0	0	0
369000000.0	0	0	0.36451730132102966	0	0	0	0	0
370000000.0	0	0	0.35857388377189636	0	0	0	0	0
371000000.0	0	0	0.35857388377189636	0	0	0	0	0
372000000.0	0	0	0.36226117610931396	0	0	0	0	0
373000000.0	0	0	0.36226117610931396	0	0	0	0	0
374000000.0	0	0	0.3581656217575073	0	0	0	0	0
375000000.0	0	0	0.3581656217575073	0	0	0	0	0
376000000.0	0	0	0.3577120900154114	0	0	0	0	0
377000000.0	0	0	0.3577120900154114	0	0	0	0	0
378000000.0	0	0	0.3534855842590332	0	0	0	0	0
379000000.0	0	0	0.3534855842590332	0	0	0	0	0
380000000.0	0	0	0.35903769731521606	0	0	0	0	0
381000000.0	0	0	0.35903769731521606	0	0	0	0	0
382000000.0	0	0	0.35925596952438354	0	0	0	0	0
383000000.0	0	0	0.35925596952438354	0	0	0	0	0
384000000.0	0	0	0.3576986491680145	0	0	0	0	0
385000000.0	0	0	0.3576986491680145	0	0	0	0	0
386000000.0	0	0	0.3604384958744049	0	0	0	0	0
387000000.0	0	0	0.3604384958744049	0	0	0	0	0
388000000.0	0	0	0.36011362075805664	0	0	0	0	0
389000000.0	0	0	0.36011362075805664	0	0	0	0	0
390000000.0	0	0	0.3639109134674072	0	0	0	0	0
391000000.0	0	0	0.3639109134674072	0	0	0	0	0
392000000.0	0	0	0.36826929450035095	0	0	0	0	0
393000000.0	0	0	0.36826929450035095	0	0	0	0	0
394000000.0	0	0	0.37470903992652893	0	0	0	0	0
395000000.0	0	0	0.37470903992652893	0	0	0	0	0
396000000.0	0	0	0.3766862154006958	0	0	0	0	0
397000000.0	0	0	0.3766862154006958	0	0	0	0	0
398000000.0	0	0	0.381924569606781	0	0	0	0	0
399000000.0	0	0	0.381924569606781	0	0	0	0	0
400000000.0	0	0	0.38234376907348633	0	0	0	0	0
401000000.0	0	0	0.38234376907348633	0	0	0	0	0
402000000.0	0	0	0.3860146105289459	0	0	0	0	0
403000000.0	0	0	0.3860146105289459	0	0	0	0	0
404000000.0	0	0	0.38842132687568665	0	0	0	0	0
405000000.0	0	0	0.38842132687568665	0	0	0	0	0
406000000.0	0	0	0.3881088197231293	0	0	0	0	0
407000000.0	0	0	0.3881088197231293	0	0	0	0	0
408000000.0	0	0	0.3880283832550049	0	0	0	0	0
409000000.0	0	0	0.3880283832550049	0	0	0	0	0
410000000.0	0	0	0.389555424451828	0	0	0	0	0
411000000.0	0	0	0.389555424451828	0	0	0	0	0
412000000.0	0	0	0.38900226354599	0	0	0	0	0
413000000.0	0	0	0.38900226354599	0	0	0	0	0
414000000.0	0	0	0.3876541554927826	0	0	0	0	0
415000000.0	0	0	0.3876541554927826	0	0	0	0	0
416000000.0	0	0	0.388540655374527	0	0	0	0	0
417000000.0	0	0	0.388540655374527	0	0	0	0	0
418000000.0	0	0	0.38763993978500366	0	0	0	0	0
419000000.0	0	0	0.38763993978500366	0	0	0	0	0
420000000.0	0	0	0.3895040452480316	0	0	0	0	0
421000000.0	0	0	0.3895040452480316	0	0	0	0	0
422000000.0	0	0	0.3871817886829376	0	0	0	0	0
423000000.0	0	0	0.3871817886829376	0	0	0	0	0
424000000.0	0	0	0.3865453004837036	0	0	0	0	0
425000000.0	0	0	0.3865453004837036	0	0	0	0	0
426000000.0	0	0	0.38664740324020386	0	0	0	0	0
427000000.0	0	0	0.38664740324020386	0	0	0	0	0
428000000.0	0	0	0.38770943880081177	0	0	0	0	0
429000000.0	0	0	0.38770943880081177	0	0	0	0	0
430000000.0	0	0	0.3891216814517975	0	0	0	0	0
431000000.0	0	0	0.3891216814517975	0	0	0	0	0
432000000.0	0	0	0.38275080919265747	0	0	0	0	0
433000000.0	0	0	0.38275080919265747	0	0	0	0	0
434000000.0	0	0	0.38440683484077454	0	0	0	0	0
435000000.0	0	0	0.38440683484077454	0	0	0	0	0
436000000.0	0	0	0.37986183166503906	0	0	0	0	0
437000000.0	0	0	0.37986183166503906	0	0	0	0	0
438000000.0	0	0	0.38040730357170105	0	0	0	0	0
439000000.0	0	0	0.38040730357170105	0	0	0	0	0
440000000.0	0	0	0.38228365778923035	0	0	0	0	0
441000000.0	0	0	0.38228365778923035	0	0	0	0	0
442000000.0	0	0	0.3838958442211151	0	0	0	0	0
443000000.0	0	0	0.3838958442211151	0	0	0	0	0
444000000.0	0	0	0.3831314444541931	0	0	0	0	0
445000000.0	0	0	0.3831314444541931	0	0	0	0	0
446000000.0	0	0	0.380417138338089	0	0	0	0	0
447000000.0	0	0	0.380417138338089	0	0	0	0	0
448000000.0	0	0	0.37988540530204773	0	0	0	0	0
449000000.0	0	0	0.37988540530204773	0	0	0	0	0
450000000.0	0	0	0.3811444342136383	0	0	0	0	0
451000000.0	0	0	0.3811444342136383	0	0	0	0	0
452000000.0	0	0	0.38550224900245667	0	0	0	0	0
453000000.0	0	0	0.38550224900245667	0	0	0	0	0
454000000.0	0	0	0.38493746519088745	0	0	0	0	0
455000000.0	0	0	0.38493746519088745	0	0	0	0	0
456000000.0	0	0	0.38066187500953674	0	0	0	0	0
457000000.0	0	0	0.38066187500953674	0	0	0	0	0
458000000.0	0	0	0.3878675401210785	0	0	0	0	0
459000000.0	0	0	0.3878675401210785	0	0	0	0	0
460000000.0	0	0	0.3840385377407074	0	0	0	0	0
461000000.0	0	0	0.3840385377407074	0	0	0	0	0
462000000.0	0	0	0.3878779113292694	0	0	0	0	0
463000000.0	0	0	0.3878779113292694	0	0	0	0	0
464000000.0	0	0	0.3894317150115967	0	0	0	0	0
465000000.0	0	0	0.3894317150115967	0	0	0	0	0
466000000.0	0	0	0.3899277150630951	0	0	0	0	0
467000000.0	0	0	0.3899277150630951	0	0	0	0	0
468000000.0	0	0	0.3876391351222992	0	0	0	0	0
469000000.0	0	0	0.3876391351222992	0	0	0	0	0
470000000.0	0	0	0.3876771032810211	0	0	0	0	0
471000000.0	0	0	0.3876771032810211	0	0	0	0	0
472000000.0	0	0	0.38243553042411804	0	0	0	0	0
473000000.0	0	0	0.38243553042411804	0	0	0	0	0
474000000.0	0	0	0.3854542374610901	0	0	0	0	0
475000000.0	0	0	0.3854542374610901	0	0	0	0	0
476000000.0	0	0	0.38238707184791565	0	0	0	0	0
477000000.0	0	0	0.38238707184791565	0	0	0	0	0
478000000.0	0	0	0.38339298963546753	0	0	0	0	0
479000000.0	0	0	0.38339298963546753	0	0	0	0	0
480000000.0	0	0	0.38877373933792114	0	0	0	0	0
481000000.0	0	0	0.38877373933792114	0	0	0	0	0
482000000.0	0	0	0.3860049247741699	0	0	0	0	0
483000000.0	0	0	0.3860049247741699	0	0	0	0	0
484000000.0	0	0	0.3900343179702759	0	0	0	0	0
485000000.0	0	0	0.3900343179702759	0	0	0	0	0
486000000.0	0	0	0.3904503881931305	0	0	0	0	0
487000000.0	0	0	0.3904503881931305	0	0	0	0	0
488000000.0	0	0	0.38792577385902405	0	0	0	0	0
489000000.0	0	0	0.38792577385902405	0	0	0	0	0
490000000.0	0	0	0.3907557427883148	0	0	0	0	0
491000000.0	0	0	0.3907557427883148	0	0	0	0	0
492000000.0	0	0	0.39142417907714844	0	0	0	0	0
493000000.0	0	0	0.39142417907714844	0	0	0	0	0
494000000.0	0	0	0.3957873284816742	0	0	0	0	0
495000000.0	0	0	0.3957873284816742	0	0	0	0	0
496000000.0	0	0	0.4039885401725769	0	0	0	0	0
497000000.0	0	0	0.4039885401725769	0	0	0	0	0
498000000.0	0	0	0.40177932381629944	0	0	0	0	0
499000000.0	0	0	0.40177932381629944	0	0	0	0	0
500000000.0	0	0	0.40450936555862427	0	0	0	0	0
501000000.0	0	0	0.40450936555862427	0	0	0	0	0
502000000.0	0	0	0.402932733297348	0	0	0	0	0
503000000.0	0	0	0.402932733297348	0	0	0	0	0
504000000.0	0	0	0.40732765197753906	0	0	0	0	0
505000000.0	0	0	0.40732765197753906	0	0	0	0	0
506000000.0	0	0	0.40705862641334534	0	0	0	0	0
507000000.0	0	0	0.40705862641334534	0	0	0	0	0
508000000.0	0	0	0.4048663079738617	0	0	0	0	0
509000000.0	0	0	0.4048663079738617	0	0	0	0	0
510000000.0	0	0	0.40695154666900635	0	0	0	0	0
511000000.0	0	0	0.40695154666900635	0	0	0	0	0
512000000.0	0	0	0.4102778434753418	0	0	0	0	0
513000000.0	0	0	0.4102778434753418	0	0	0	0	0
514000000.0	0	0	0.41174566745758057	0	0	0	0	0
515000000.0	0	0	0.41174566745758057	0	0	0	0	0
