!	Parâmetros S - Tag_ID_1 
#	Hz	S	MA	R	50 
!	Freq	magS11	angS11	magS21	angS21	magS12	angS12	magS22	angS22
78000000.0	0	0	0.21354834735393524	0	0	0	0	0
79000000.0	0	0	0.21354834735393524	0	0	0	0	0
80000000.0	0	0	0.21015965938568115	0	0	0	0	0
81000000.0	0	0	0.21015965938568115	0	0	0	0	0
82000000.0	0	0	0.20642927289009094	0	0	0	0	0
83000000.0	0	0	0.20642927289009094	0	0	0	0	0
84000000.0	0	0	0.20221669971942902	0	0	0	0	0
85000000.0	0	0	0.20221669971942902	0	0	0	0	0
86000000.0	0	0	0.19821077585220337	0	0	0	0	0
87000000.0	0	0	0.19821077585220337	0	0	0	0	0
88000000.0	0	0	0.19823333621025085	0	0	0	0	0
89000000.0	0	0	0.19823333621025085	0	0	0	0	0
90000000.0	0	0	0.19673745334148407	0	0	0	0	0
91000000.0	0	0	0.19673745334148407	0	0	0	0	0
92000000.0	0	0	0.19246812164783478	0	0	0	0	0
93000000.0	0	0	0.19246812164783478	0	0	0	0	0
94000000.0	0	0	0.1889771968126297	0	0	0	0	0
95000000.0	0	0	0.1889771968126297	0	0	0	0	0
96000000.0	0	0	0.18713325262069702	0	0	0	0	0
97000000.0	0	0	0.18713325262069702	0	0	0	0	0
98000000.0	0	0	0.1865902692079544	0	0	0	0	0
99000000.0	0	0	0.1865902692079544	0	0	0	0	0
100000000.0	0	0	0.1849600374698639	0	0	0	0	0
101000000.0	0	0	0.1849600374698639	0	0	0	0	0
102000000.0	0	0	0.18689009547233582	0	0	0	0	0
103000000.0	0	0	0.18689009547233582	0	0	0	0	0
104000000.0	0	0	0.19105540215969086	0	0	0	0	0
105000000.0	0	0	0.19105540215969086	0	0	0	0	0
106000000.0	0	0	0.19707171618938446	0	0	0	0	0
107000000.0	0	0	0.19707171618938446	0	0	0	0	0
108000000.0	0	0	0.20144018530845642	0	0	0	0	0
109000000.0	0	0	0.20144018530845642	0	0	0	0	0
110000000.0	0	0	0.20828020572662354	0	0	0	0	0
111000000.0	0	0	0.20828020572662354	0	0	0	0	0
112000000.0	0	0	0.20914679765701294	0	0	0	0	0
113000000.0	0	0	0.20914679765701294	0	0	0	0	0
114000000.0	0	0	0.21222493052482605	0	0	0	0	0
115000000.0	0	0	0.21222493052482605	0	0	0	0	0
116000000.0	0	0	0.21774078905582428	0	0	0	0	0
117000000.0	0	0	0.21774078905582428	0	0	0	0	0
118000000.0	0	0	0.22417297959327698	0	0	0	0	0
119000000.0	0	0	0.22417297959327698	0	0	0	0	0
120000000.0	0	0	0.2296309769153595	0	0	0	0	0
121000000.0	0	0	0.2296309769153595	0	0	0	0	0
122000000.0	0	0	0.23104441165924072	0	0	0	0	0
123000000.0	0	0	0.23104441165924072	0	0	0	0	0
124000000.0	0	0	0.24066714942455292	0	0	0	0	0
125000000.0	0	0	0.24066714942455292	0	0	0	0	0
126000000.0	0	0	0.241765558719635	0	0	0	0	0
127000000.0	0	0	0.241765558719635	0	0	0	0	0
128000000.0	0	0	0.24326848983764648	0	0	0	0	0
129000000.0	0	0	0.24326848983764648	0	0	0	0	0
130000000.0	0	0	0.24726349115371704	0	0	0	0	0
131000000.0	0	0	0.24726349115371704	0	0	0	0	0
132000000.0	0	0	0.25357547402381897	0	0	0	0	0
133000000.0	0	0	0.25357547402381897	0	0	0	0	0
134000000.0	0	0	0.25860223174095154	0	0	0	0	0
135000000.0	0	0	0.25860223174095154	0	0	0	0	0
136000000.0	0	0	0.2644899785518646	0	0	0	0	0
137000000.0	0	0	0.2644899785518646	0	0	0	0	0
138000000.0	0	0	0.27121230959892273	0	0	0	0	0
139000000.0	0	0	0.27121230959892273	0	0	0	0	0
140000000.0	0	0	0.2752555012702942	0	0	0	0	0
141000000.0	0	0	0.2752555012702942	0	0	0	0	0
142000000.0	0	0	0.2800411880016327	0	0	0	0	0
143000000.0	0	0	0.2800411880016327	0	0	0	0	0
144000000.0	0	0	0.2799718379974365	0	0	0	0	0
145000000.0	0	0	0.2799718379974365	0	0	0	0	0
146000000.0	0	0	0.2843034565448761	0	0	0	0	0
147000000.0	0	0	0.2843034565448761	0	0	0	0	0
148000000.0	0	0	0.28642892837524414	0	0	0	0	0
149000000.0	0	0	0.28642892837524414	0	0	0	0	0
150000000.0	0	0	0.2914373278617859	0	0	0	0	0
151000000.0	0	0	0.2914373278617859	0	0	0	0	0
152000000.0	0	0	0.29407596588134766	0	0	0	0	0
153000000.0	0	0	0.29407596588134766	0	0	0	0	0
154000000.0	0	0	0.29433828592300415	0	0	0	0	0
155000000.0	0	0	0.29433828592300415	0	0	0	0	0
156000000.0	0	0	0.29635775089263916	0	0	0	0	0
157000000.0	0	0	0.29635775089263916	0	0	0	0	0
158000000.0	0	0	0.29775506258010864	0	0	0	0	0
159000000.0	0	0	0.29775506258010864	0	0	0	0	0
160000000.0	0	0	0.3015303611755371	0	0	0	0	0
161000000.0	0	0	0.3015303611755371	0	0	0	0	0
162000000.0	0	0	0.3001009225845337	0	0	0	0	0
163000000.0	0	0	0.3001009225845337	0	0	0	0	0
164000000.0	0	0	0.3022567927837372	0	0	0	0	0
165000000.0	0	0	0.3022567927837372	0	0	0	0	0
166000000.0	0	0	0.30262428522109985	0	0	0	0	0
167000000.0	0	0	0.30262428522109985	0	0	0	0	0
168000000.0	0	0	0.3052775263786316	0	0	0	0	0
169000000.0	0	0	0.3052775263786316	0	0	0	0	0
170000000.0	0	0	0.31016072630882263	0	0	0	0	0
171000000.0	0	0	0.31016072630882263	0	0	0	0	0
172000000.0	0	0	0.3112466037273407	0	0	0	0	0
173000000.0	0	0	0.3112466037273407	0	0	0	0	0
174000000.0	0	0	0.31094080209732056	0	0	0	0	0
175000000.0	0	0	0.31094080209732056	0	0	0	0	0
176000000.0	0	0	0.31137990951538086	0	0	0	0	0
177000000.0	0	0	0.31137990951538086	0	0	0	0	0
178000000.0	0	0	0.310537189245224	0	0	0	0	0
179000000.0	0	0	0.310537189245224	0	0	0	0	0
180000000.0	0	0	0.310794860124588	0	0	0	0	0
181000000.0	0	0	0.310794860124588	0	0	0	0	0
182000000.0	0	0	0.31147071719169617	0	0	0	0	0
183000000.0	0	0	0.31147071719169617	0	0	0	0	0
184000000.0	0	0	0.31052443385124207	0	0	0	0	0
185000000.0	0	0	0.31052443385124207	0	0	0	0	0
186000000.0	0	0	0.30895861983299255	0	0	0	0	0
187000000.0	0	0	0.30895861983299255	0	0	0	0	0
188000000.0	0	0	0.30913490056991577	0	0	0	0	0
189000000.0	0	0	0.30913490056991577	0	0	0	0	0
190000000.0	0	0	0.30629560351371765	0	0	0	0	0
191000000.0	0	0	0.30629560351371765	0	0	0	0	0
192000000.0	0	0	0.30401211977005005	0	0	0	0	0
193000000.0	0	0	0.30401211977005005	0	0	0	0	0
194000000.0	0	0	0.30329930782318115	0	0	0	0	0
195000000.0	0	0	0.30329930782318115	0	0	0	0	0
196000000.0	0	0	0.3000755310058594	0	0	0	0	0
197000000.0	0	0	0.3000755310058594	0	0	0	0	0
198000000.0	0	0	0.3011491894721985	0	0	0	0	0
199000000.0	0	0	0.3011491894721985	0	0	0	0	0
200000000.0	0	0	0.3018026649951935	0	0	0	0	0
201000000.0	0	0	0.3018026649951935	0	0	0	0	0
202000000.0	0	0	0.30293139815330505	0	0	0	0	0
203000000.0	0	0	0.30293139815330505	0	0	0	0	0
204000000.0	0	0	0.3043317496776581	0	0	0	0	0
205000000.0	0	0	0.3043317496776581	0	0	0	0	0
206000000.0	0	0	0.30556708574295044	0	0	0	0	0
207000000.0	0	0	0.30556708574295044	0	0	0	0	0
208000000.0	0	0	0.306534081697464	0	0	0	0	0
209000000.0	0	0	0.306534081697464	0	0	0	0	0
210000000.0	0	0	0.3088168799877167	0	0	0	0	0
211000000.0	0	0	0.3088168799877167	0	0	0	0	0
212000000.0	0	0	0.3093416392803192	0	0	0	0	0
213000000.0	0	0	0.3093416392803192	0	0	0	0	0
214000000.0	0	0	0.3141293525695801	0	0	0	0	0
215000000.0	0	0	0.3141293525695801	0	0	0	0	0
216000000.0	0	0	0.3175922632217407	0	0	0	0	0
217000000.0	0	0	0.3175922632217407	0	0	0	0	0
218000000.0	0	0	0.319626122713089	0	0	0	0	0
219000000.0	0	0	0.319626122713089	0	0	0	0	0
220000000.0	0	0	0.32049164175987244	0	0	0	0	0
221000000.0	0	0	0.32049164175987244	0	0	0	0	0
222000000.0	0	0	0.31959277391433716	0	0	0	0	0
223000000.0	0	0	0.31959277391433716	0	0	0	0	0
224000000.0	0	0	0.3227844536304474	0	0	0	0	0
225000000.0	0	0	0.3227844536304474	0	0	0	0	0
226000000.0	0	0	0.32097113132476807	0	0	0	0	0
227000000.0	0	0	0.32097113132476807	0	0	0	0	0
228000000.0	0	0	0.3216187357902527	0	0	0	0	0
229000000.0	0	0	0.3216187357902527	0	0	0	0	0
230000000.0	0	0	0.32252442836761475	0	0	0	0	0
231000000.0	0	0	0.32252442836761475	0	0	0	0	0
232000000.0	0	0	0.32212361693382263	0	0	0	0	0
233000000.0	0	0	0.32212361693382263	0	0	0	0	0
234000000.0	0	0	0.3220214247703552	0	0	0	0	0
235000000.0	0	0	0.3220214247703552	0	0	0	0	0
236000000.0	0	0	0.3221302926540375	0	0	0	0	0
237000000.0	0	0	0.3221302926540375	0	0	0	0	0
238000000.0	0	0	0.32167211174964905	0	0	0	0	0
239000000.0	0	0	0.32167211174964905	0	0	0	0	0
240000000.0	0	0	0.322109192609787	0	0	0	0	0
241000000.0	0	0	0.322109192609787	0	0	0	0	0
242000000.0	0	0	0.3205772638320923	0	0	0	0	0
243000000.0	0	0	0.3205772638320923	0	0	0	0	0
244000000.0	0	0	0.32063645124435425	0	0	0	0	0
245000000.0	0	0	0.32063645124435425	0	0	0	0	0
246000000.0	0	0	0.3244101405143738	0	0	0	0	0
247000000.0	0	0	0.3244101405143738	0	0	0	0	0
248000000.0	0	0	0.3240935206413269	0	0	0	0	0
249000000.0	0	0	0.3240935206413269	0	0	0	0	0
250000000.0	0	0	0.32227247953414917	0	0	0	0	0
251000000.0	0	0	0.32227247953414917	0	0	0	0	0
252000000.0	0	0	0.3244037926197052	0	0	0	0	0
253000000.0	0	0	0.3244037926197052	0	0	0	0	0
254000000.0	0	0	0.32194510102272034	0	0	0	0	0
255000000.0	0	0	0.32194510102272034	0	0	0	0	0
256000000.0	0	0	0.3221948742866516	0	0	0	0	0
257000000.0	0	0	0.3221948742866516	0	0	0	0	0
258000000.0	0	0	0.3229166269302368	0	0	0	0	0
259000000.0	0	0	0.3229166269302368	0	0	0	0	0
260000000.0	0	0	0.3229833245277405	0	0	0	0	0
261000000.0	0	0	0.3229833245277405	0	0	0	0	0
262000000.0	0	0	0.3230958580970764	0	0	0	0	0
263000000.0	0	0	0.3230958580970764	0	0	0	0	0
264000000.0	0	0	0.3238486349582672	0	0	0	0	0
265000000.0	0	0	0.3238486349582672	0	0	0	0	0
266000000.0	0	0	0.32505059242248535	0	0	0	0	0
267000000.0	0	0	0.32505059242248535	0	0	0	0	0
268000000.0	0	0	0.3248743414878845	0	0	0	0	0
269000000.0	0	0	0.3248743414878845	0	0	0	0	0
270000000.0	0	0	0.3245614767074585	0	0	0	0	0
271000000.0	0	0	0.3245614767074585	0	0	0	0	0
272000000.0	0	0	0.3255562484264374	0	0	0	0	0
273000000.0	0	0	0.3255562484264374	0	0	0	0	0
274000000.0	0	0	0.32919150590896606	0	0	0	0	0
275000000.0	0	0	0.32919150590896606	0	0	0	0	0
276000000.0	0	0	0.3320969045162201	0	0	0	0	0
277000000.0	0	0	0.3320969045162201	0	0	0	0	0
278000000.0	0	0	0.33354517817497253	0	0	0	0	0
279000000.0	0	0	0.33354517817497253	0	0	0	0	0
280000000.0	0	0	0.33354437351226807	0	0	0	0	0
281000000.0	0	0	0.33354437351226807	0	0	0	0	0
282000000.0	0	0	0.3342454135417938	0	0	0	0	0
283000000.0	0	0	0.3342454135417938	0	0	0	0	0
284000000.0	0	0	0.33618444204330444	0	0	0	0	0
285000000.0	0	0	0.33618444204330444	0	0	0	0	0
286000000.0	0	0	0.3384358882904053	0	0	0	0	0
287000000.0	0	0	0.3384358882904053	0	0	0	0	0
288000000.0	0	0	0.34036651253700256	0	0	0	0	0
289000000.0	0	0	0.34036651253700256	0	0	0	0	0
290000000.0	0	0	0.34291866421699524	0	0	0	0	0
291000000.0	0	0	0.34291866421699524	0	0	0	0	0
292000000.0	0	0	0.3455653786659241	0	0	0	0	0
293000000.0	0	0	0.3455653786659241	0	0	0	0	0
294000000.0	0	0	0.3468623757362366	0	0	0	0	0
295000000.0	0	0	0.3468623757362366	0	0	0	0	0
296000000.0	0	0	0.34766465425491333	0	0	0	0	0
297000000.0	0	0	0.34766465425491333	0	0	0	0	0
298000000.0	0	0	0.34757280349731445	0	0	0	0	0
299000000.0	0	0	0.34757280349731445	0	0	0	0	0
300000000.0	0	0	0.3480759263038635	0	0	0	0	0
301000000.0	0	0	0.3480759263038635	0	0	0	0	0
302000000.0	0	0	0.3449925184249878	0	0	0	0	0
303000000.0	0	0	0.3449925184249878	0	0	0	0	0
304000000.0	0	0	0.3454406261444092	0	0	0	0	0
305000000.0	0	0	0.3454406261444092	0	0	0	0	0
306000000.0	0	0	0.3468765616416931	0	0	0	0	0
307000000.0	0	0	0.3468765616416931	0	0	0	0	0
308000000.0	0	0	0.34620609879493713	0	0	0	0	0
309000000.0	0	0	0.34620609879493713	0	0	0	0	0
310000000.0	0	0	0.3456125259399414	0	0	0	0	0
311000000.0	0	0	0.3456125259399414	0	0	0	0	0
312000000.0	0	0	0.34462210536003113	0	0	0	0	0
313000000.0	0	0	0.34462210536003113	0	0	0	0	0
314000000.0	0	0	0.345255583524704	0	0	0	0	0
315000000.0	0	0	0.345255583524704	0	0	0	0	0
316000000.0	0	0	0.34764787554740906	0	0	0	0	0
317000000.0	0	0	0.34764787554740906	0	0	0	0	0
318000000.0	0	0	0.3474523425102234	0	0	0	0	0
319000000.0	0	0	0.3474523425102234	0	0	0	0	0
320000000.0	0	0	0.3471398651599884	0	0	0	0	0
321000000.0	0	0	0.3471398651599884	0	0	0	0	0
322000000.0	0	0	0.350398987531662	0	0	0	0	0
323000000.0	0	0	0.350398987531662	0	0	0	0	0
324000000.0	0	0	0.3530776798725128	0	0	0	0	0
325000000.0	0	0	0.3530776798725128	0	0	0	0	0
326000000.0	0	0	0.356209397315979	0	0	0	0	0
327000000.0	0	0	0.356209397315979	0	0	0	0	0
328000000.0	0	0	0.35895460844039917	0	0	0	0	0
329000000.0	0	0	0.35895460844039917	0	0	0	0	0
330000000.0	0	0	0.36057400703430176	0	0	0	0	0
331000000.0	0	0	0.36057400703430176	0	0	0	0	0
332000000.0	0	0	0.36114615201950073	0	0	0	0	0
333000000.0	0	0	0.36114615201950073	0	0	0	0	0
334000000.0	0	0	0.363485187292099	0	0	0	0	0
335000000.0	0	0	0.363485187292099	0	0	0	0	0
336000000.0	0	0	0.3647984266281128	0	0	0	0	0
337000000.0	0	0	0.3647984266281128	0	0	0	0	0
338000000.0	0	0	0.3611556887626648	0	0	0	0	0
339000000.0	0	0	0.3611556887626648	0	0	0	0	0
340000000.0	0	0	0.3586035370826721	0	0	0	0	0
341000000.0	0	0	0.3586035370826721	0	0	0	0	0
342000000.0	0	0	0.3620084226131439	0	0	0	0	0
343000000.0	0	0	0.3620084226131439	0	0	0	0	0
344000000.0	0	0	0.3650762140750885	0	0	0	0	0
345000000.0	0	0	0.3650762140750885	0	0	0	0	0
346000000.0	0	0	0.3670167922973633	0	0	0	0	0
347000000.0	0	0	0.3670167922973633	0	0	0	0	0
348000000.0	0	0	0.3594796359539032	0	0	0	0	0
349000000.0	0	0	0.3594796359539032	0	0	0	0	0
350000000.0	0	0	0.3552148640155792	0	0	0	0	0
351000000.0	0	0	0.3552148640155792	0	0	0	0	0
352000000.0	0	0	0.35645830631256104	0	0	0	0	0
353000000.0	0	0	0.35645830631256104	0	0	0	0	0
354000000.0	0	0	0.35782328248023987	0	0	0	0	0
355000000.0	0	0	0.35782328248023987	0	0	0	0	0
356000000.0	0	0	0.3599177300930023	0	0	0	0	0
357000000.0	0	0	0.3599177300930023	0	0	0	0	0
358000000.0	0	0	0.3606896698474884	0	0	0	0	0
359000000.0	0	0	0.3606896698474884	0	0	0	0	0
360000000.0	0	0	0.3608735203742981	0	0	0	0	0
361000000.0	0	0	0.3608735203742981	0	0	0	0	0
362000000.0	0	0	0.36182457208633423	0	0	0	0	0
363000000.0	0	0	0.36182457208633423	0	0	0	0	0
364000000.0	0	0	0.3675616979598999	0	0	0	0	0
365000000.0	0	0	0.3675616979598999	0	0	0	0	0
366000000.0	0	0	0.3695535361766815	0	0	0	0	0
367000000.0	0	0	0.3695535361766815	0	0	0	0	0
368000000.0	0	0	0.3670027554035187	0	0	0	0	0
369000000.0	0	0	0.3670027554035187	0	0	0	0	0
370000000.0	0	0	0.36432501673698425	0	0	0	0	0
371000000.0	0	0	0.36432501673698425	0	0	0	0	0
372000000.0	0	0	0.3637750744819641	0	0	0	0	0
373000000.0	0	0	0.3637750744819641	0	0	0	0	0
374000000.0	0	0	0.3655906915664673	0	0	0	0	0
375000000.0	0	0	0.3655906915664673	0	0	0	0	0
376000000.0	0	0	0.3693486154079437	0	0	0	0	0
377000000.0	0	0	0.3693486154079437	0	0	0	0	0
378000000.0	0	0	0.3656124174594879	0	0	0	0	0
379000000.0	0	0	0.3656124174594879	0	0	0	0	0
380000000.0	0	0	0.36562636494636536	0	0	0	0	0
381000000.0	0	0	0.36562636494636536	0	0	0	0	0
382000000.0	0	0	0.3660907745361328	0	0	0	0	0
383000000.0	0	0	0.3660907745361328	0	0	0	0	0
384000000.0	0	0	0.3648892939090729	0	0	0	0	0
385000000.0	0	0	0.3648892939090729	0	0	0	0	0
386000000.0	0	0	0.3670341670513153	0	0	0	0	0
387000000.0	0	0	0.3670341670513153	0	0	0	0	0
388000000.0	0	0	0.3646804690361023	0	0	0	0	0
389000000.0	0	0	0.3646804690361023	0	0	0	0	0
390000000.0	0	0	0.3639363646507263	0	0	0	0	0
391000000.0	0	0	0.3639363646507263	0	0	0	0	0
392000000.0	0	0	0.36818447709083557	0	0	0	0	0
393000000.0	0	0	0.36818447709083557	0	0	0	0	0
394000000.0	0	0	0.37008312344551086	0	0	0	0	0
395000000.0	0	0	0.37008312344551086	0	0	0	0	0
396000000.0	0	0	0.37472185492515564	0	0	0	0	0
397000000.0	0	0	0.37472185492515564	0	0	0	0	0
398000000.0	0	0	0.37940648198127747	0	0	0	0	0
399000000.0	0	0	0.37940648198127747	0	0	0	0	0
400000000.0	0	0	0.38451525568962097	0	0	0	0	0
401000000.0	0	0	0.38451525568962097	0	0	0	0	0
402000000.0	0	0	0.3869057297706604	0	0	0	0	0
403000000.0	0	0	0.3869057297706604	0	0	0	0	0
404000000.0	0	0	0.39144083857536316	0	0	0	0	0
405000000.0	0	0	0.39144083857536316	0	0	0	0	0
406000000.0	0	0	0.3908334970474243	0	0	0	0	0
407000000.0	0	0	0.3908334970474243	0	0	0	0	0
408000000.0	0	0	0.3939274549484253	0	0	0	0	0
409000000.0	0	0	0.3939274549484253	0	0	0	0	0
410000000.0	0	0	0.3933084309101105	0	0	0	0	0
411000000.0	0	0	0.3933084309101105	0	0	0	0	0
412000000.0	0	0	0.39432772994041443	0	0	0	0	0
413000000.0	0	0	0.39432772994041443	0	0	0	0	0
414000000.0	0	0	0.39738166332244873	0	0	0	0	0
415000000.0	0	0	0.39738166332244873	0	0	0	0	0
416000000.0	0	0	0.40015849471092224	0	0	0	0	0
417000000.0	0	0	0.40015849471092224	0	0	0	0	0
418000000.0	0	0	0.4023561477661133	0	0	0	0	0
419000000.0	0	0	0.4023561477661133	0	0	0	0	0
420000000.0	0	0	0.4015769362449646	0	0	0	0	0
421000000.0	0	0	0.4015769362449646	0	0	0	0	0
422000000.0	0	0	0.40038299560546875	0	0	0	0	0
423000000.0	0	0	0.40038299560546875	0	0	0	0	0
424000000.0	0	0	0.399716854095459	0	0	0	0	0
425000000.0	0	0	0.399716854095459	0	0	0	0	0
426000000.0	0	0	0.4017694890499115	0	0	0	0	0
427000000.0	0	0	0.4017694890499115	0	0	0	0	0
428000000.0	0	0	0.3940720856189728	0	0	0	0	0
429000000.0	0	0	0.3940720856189728	0	0	0	0	0
430000000.0	0	0	0.3949950337409973	0	0	0	0	0
431000000.0	0	0	0.3949950337409973	0	0	0	0	0
432000000.0	0	0	0.3955518305301666	0	0	0	0	0
433000000.0	0	0	0.3955518305301666	0	0	0	0	0
434000000.0	0	0	0.39481839537620544	0	0	0	0	0
435000000.0	0	0	0.39481839537620544	0	0	0	0	0
436000000.0	0	0	0.3906511962413788	0	0	0	0	0
437000000.0	0	0	0.3906511962413788	0	0	0	0	0
438000000.0	0	0	0.38837411999702454	0	0	0	0	0
439000000.0	0	0	0.38837411999702454	0	0	0	0	0
440000000.0	0	0	0.385094553232193	0	0	0	0	0
441000000.0	0	0	0.385094553232193	0	0	0	0	0
442000000.0	0	0	0.3849700391292572	0	0	0	0	0
443000000.0	0	0	0.3849700391292572	0	0	0	0	0
444000000.0	0	0	0.3860934376716614	0	0	0	0	0
445000000.0	0	0	0.3860934376716614	0	0	0	0	0
446000000.0	0	0	0.3828953802585602	0	0	0	0	0
447000000.0	0	0	0.3828953802585602	0	0	0	0	0
448000000.0	0	0	0.3847827911376953	0	0	0	0	0
449000000.0	0	0	0.3847827911376953	0	0	0	0	0
450000000.0	0	0	0.38631197810173035	0	0	0	0	0
451000000.0	0	0	0.38631197810173035	0	0	0	0	0
452000000.0	0	0	0.38874784111976624	0	0	0	0	0
453000000.0	0	0	0.38874784111976624	0	0	0	0	0
454000000.0	0	0	0.38526687026023865	0	0	0	0	0
455000000.0	0	0	0.38526687026023865	0	0	0	0	0
456000000.0	0	0	0.3858000934123993	0	0	0	0	0
457000000.0	0	0	0.3858000934123993	0	0	0	0	0
458000000.0	0	0	0.38536858558654785	0	0	0	0	0
459000000.0	0	0	0.38536858558654785	0	0	0	0	0
460000000.0	0	0	0.38814854621887207	0	0	0	0	0
461000000.0	0	0	0.38814854621887207	0	0	0	0	0
462000000.0	0	0	0.3916337490081787	0	0	0	0	0
463000000.0	0	0	0.3916337490081787	0	0	0	0	0
464000000.0	0	0	0.39005956053733826	0	0	0	0	0
465000000.0	0	0	0.39005956053733826	0	0	0	0	0
466000000.0	0	0	0.39639928936958313	0	0	0	0	0
467000000.0	0	0	0.39639928936958313	0	0	0	0	0
468000000.0	0	0	0.39674463868141174	0	0	0	0	0
469000000.0	0	0	0.39674463868141174	0	0	0	0	0
470000000.0	0	0	0.3989454507827759	0	0	0	0	0
471000000.0	0	0	0.3989454507827759	0	0	0	0	0
472000000.0	0	0	0.3969176411628723	0	0	0	0	0
473000000.0	0	0	0.3969176411628723	0	0	0	0	0
474000000.0	0	0	0.3958999812602997	0	0	0	0	0
475000000.0	0	0	0.3958999812602997	0	0	0	0	0
476000000.0	0	0	0.3997834324836731	0	0	0	0	0
477000000.0	0	0	0.3997834324836731	0	0	0	0	0
478000000.0	0	0	0.398233026266098	0	0	0	0	0
479000000.0	0	0	0.398233026266098	0	0	0	0	0
480000000.0	0	0	0.3958214223384857	0	0	0	0	0
481000000.0	0	0	0.3958214223384857	0	0	0	0	0
482000000.0	0	0	0.39513683319091797	0	0	0	0	0
483000000.0	0	0	0.39513683319091797	0	0	0	0	0
484000000.0	0	0	0.39782238006591797	0	0	0	0	0
485000000.0	0	0	0.39782238006591797	0	0	0	0	0
486000000.0	0	0	0.39682263135910034	0	0	0	0	0
487000000.0	0	0	0.39682263135910034	0	0	0	0	0
488000000.0	0	0	0.3983623683452606	0	0	0	0	0
489000000.0	0	0	0.3983623683452606	0	0	0	0	0
490000000.0	0	0	0.3945155441761017	0	0	0	0	0
491000000.0	0	0	0.3945155441761017	0	0	0	0	0
492000000.0	0	0	0.3909165859222412	0	0	0	0	0
493000000.0	0	0	0.3909165859222412	0	0	0	0	0
494000000.0	0	0	0.3931255042552948	0	0	0	0	0
495000000.0	0	0	0.3931255042552948	0	0	0	0	0
496000000.0	0	0	0.3959212303161621	0	0	0	0	0
497000000.0	0	0	0.3959212303161621	0	0	0	0	0
498000000.0	0	0	0.3935062289237976	0	0	0	0	0
499000000.0	0	0	0.3935062289237976	0	0	0	0	0
500000000.0	0	0	0.39543870091438293	0	0	0	0	0
501000000.0	0	0	0.39543870091438293	0	0	0	0	0
502000000.0	0	0	0.40233734250068665	0	0	0	0	0
503000000.0	0	0	0.40233734250068665	0	0	0	0	0
504000000.0	0	0	0.40363502502441406	0	0	0	0	0
505000000.0	0	0	0.40363502502441406	0	0	0	0	0
506000000.0	0	0	0.4080924987792969	0	0	0	0	0
507000000.0	0	0	0.4080924987792969	0	0	0	0	0
508000000.0	0	0	0.40841686725616455	0	0	0	0	0
509000000.0	0	0	0.40841686725616455	0	0	0	0	0
510000000.0	0	0	0.4095853865146637	0	0	0	0	0
511000000.0	0	0	0.4095853865146637	0	0	0	0	0
512000000.0	0	0	0.4102192521095276	0	0	0	0	0
513000000.0	0	0	0.4102192521095276	0	0	0	0	0
514000000.0	0	0	0.4099479913711548	0	0	0	0	0
515000000.0	0	0	0.4099479913711548	0	0	0	0	0
